! S1P to S2P converted from file: C:\GitWork\Spar\Data\ADRV9009_TX.s1p
! Spar Program version 0.4
# HZ S MA R 50
         0     0.20385103  180.00000000    0.97900192   90.00000000    0.97900192   90.00000000    0.20385103  180.00000000
 125000000     0.20746634 -172.82074872    0.97824216   97.17925128    0.97824216   97.17925128    0.20746634 -172.82074872
 250000000     0.21858108 -166.43385060    0.97581879  103.56614940    0.97581879  103.56614940    0.21858108 -166.43385060
 375000000     0.23585810 -161.39675457    0.97178751  108.60324543    0.97178751  108.60324543    0.23585810 -161.39675457
 500000000     0.25763726 -157.87718970    0.96624171  112.12281030    0.96624171  112.12281030    0.25763726 -157.87718970
 625000000     0.28228418 -155.74135367    0.95933083  114.25864633    0.95933083  114.25864633    0.28228418 -155.74135367
 750000000     0.30848976 -154.74101428    0.95122766  115.25898572    0.95122766  115.25898572    0.30848976 -154.74101428
 875000000     0.33528631 -154.62635642    0.94211628  115.37364358    0.94211628  115.37364358    0.33528631 -154.62635642
1000000000     0.36198028 -155.18671178    0.93218575  114.81328822    0.93218575  114.81328822    0.36198028 -155.18671178
1125000000     0.38808419 -156.25645690    0.92162393  113.74354310    0.92162393  113.74354310    0.38808419 -156.25645690
1250000000     0.41326113 -157.70929088    0.91061256  112.29070912    0.91061256  112.29070912    0.41326113 -157.70929088
1375000000     0.43728410 -159.45009021    0.89932342  110.54990979    0.89932342  110.54990979    0.43728410 -159.45009021
1500000000     0.46000893 -161.40744243    0.88791429  108.59255757    0.88791429  108.59255757    0.46000893 -161.40744243
1625000000     0.48135040 -163.52783853    0.87652826  106.47216147    0.87652826  106.47216147    0.48135040 -163.52783853
1750000000     0.50126819 -165.77117546    0.86529197  104.22882454    0.86529197  104.22882454    0.50126819 -165.77117546
1875000000     0.51975418 -168.10746009    0.85431586  101.89253991    0.85431586  101.89253991    0.51975418 -168.10746009
2000000000     0.53682392 -170.51438681    0.84369430   99.48561319    0.84369430   99.48561319    0.53682392 -170.51438681
2125000000     0.55250920 -172.97553471    0.83350680   97.02446529    0.83350680   97.02446529    0.55250920 -172.97553471
2250000000     0.56685214 -175.47898803    0.82381955   94.52101197    0.82381955   94.52101197    0.56685214 -175.47898803
2375000000     0.57990188 -178.01633980    0.81468633   91.98366020    0.81468633   91.98366020    0.57990188 -178.01633980
2500000000     0.59171050  179.41807763    0.80615053   89.41807763    0.80615053   89.41807763    0.59171050  179.41807763
2625000000     0.60233067  176.82776603    0.79824668   86.82776603    0.79824668   86.82776603    0.60233067  176.82776603
2750000000     0.61181408  174.21449289    0.79100160   84.21449289    0.79100160   84.21449289    0.61181408  174.21449289
2875000000     0.62021170  171.57863738    0.78443448   81.57863738    0.78443448   81.57863738    0.62021170  171.57863738
3000000000     0.62756910  168.91943647    0.77856087   78.91943647    0.77856087   78.91943647    0.62756910  168.91943647
3125000000     0.63392966  166.23517593    0.77339071   76.23517593    0.77339071   76.23517593    0.63392966  166.23517593
3250000000     0.63933169  163.52333007    0.76893107   73.52333007    0.76893107   73.52333007    0.63933169  163.52333007
3375000000     0.64380899  160.78066791    0.76518624   70.78066791    0.76518624   70.78066791    0.64380899  160.78066791
3500000000     0.64739128  158.00332493    0.76215781   68.00332493    0.76215781   68.00332493    0.64739128  158.00332493
3625000000     0.65010254  155.18684327    0.75984649   65.18684327    0.75984649   65.18684327    0.65010254  155.18684327
3750000000     0.65196324  152.32620840    0.75825058   62.32620840    0.75825058   62.32620840    0.65196324  152.32620840
3875000000     0.65298822  149.41583940    0.75736806   59.41583940    0.75736806   59.41583940    0.65298822  149.41583940
4000000000     0.65318851  146.44959784    0.75719533   56.44959784    0.75719533   56.44959784    0.65318851  146.44959784
4125000000     0.65257061  143.42075119    0.75772792   53.42075119    0.75772792   53.42075119    0.65257061  143.42075119
4250000000     0.65113692  140.32194291    0.75896029   50.32194291    0.75896029   50.32194291    0.65113692  140.32194291
4375000000     0.64888633  137.14514315    0.76088536   47.14514315    0.76088536   47.14514315    0.64888633  137.14514315
4500000000     0.64581378  133.88156823    0.76349496   43.88156823    0.76349496   43.88156823    0.64581378  133.88156823
4625000000     0.64190797  130.52166703    0.76678169   40.52166703    0.76678169   40.52166703    0.64190797  130.52166703
4750000000     0.63717890  127.05553296    0.77071593   37.05553296    0.77071593   37.05553296    0.63717890  127.05553296
4875000000     0.63158929  123.47025962    0.77530315   33.47025962    0.77530315   33.47025962    0.63158929  123.47025962
5000000000     0.62513923  119.75424515    0.78051326   29.75424515    0.78051326   29.75424515    0.62513923  119.75424515
5125000000     0.61781756  115.89341037    0.78632147   25.89341037    0.78632147   25.89341037    0.61781756  115.89341037
5250000000     0.60961601  111.87240760    0.79269687   21.87240760    0.79269687   21.87240760    0.60961601  111.87240760
5375000000     0.60053163  107.67432275    0.79960100   17.67432275    0.79960100   17.67432275    0.60053163  107.67432275
5500000000     0.59056752  103.28044473    0.80698823   13.28044473    0.80698823   13.28044473    0.59056752  103.28044473
5625000000     0.57973890   98.67012826    0.81480231    8.67012826    0.81480231    8.67012826    0.57973890   98.67012826
5750000000     0.56807582   93.82060560    0.82297622    3.82060560    0.82297622    3.82060560    0.56807582   93.82060560
5875000000     0.55562836   88.70685821    0.83143077   -1.29314179    0.83143077   -1.29314179    0.55562836   88.70685821
6000000000     0.54247182   83.30152707    0.84007400   -6.69847293    0.84007400   -6.69847293    0.54247182   83.30152707
