! Created Mon Mar 30 08:32:10 2015.
!
! TX Port Z Model. Valid for TX1 and TX2.
!
! Format : SEDZ : Series Equivalent Differential Z
!
! Built from Die Layout Post Extraction & EM based Laminate "S" 
! Model.
!
! Port 1 : Differential : Across + & - Output Ports : Board Ball Pad Reference Plane.
!
# hz S ma R 50
! 1 Port Network Data from SP1.SP block
! freq  magS11  angS11  
!     
                 0       0.138922104     4.11270159e-17
         125000000       0.139681658        -10.9636187
         250000000       0.141260187        -21.9358072
         375000000       0.143769178        -32.8693492
         500000000       0.147179717        -43.6932364
         625000000       0.151522233        -54.3506412
         750000000       0.156828766        -64.7996566
         875000000       0.163119842        -75.0071894
             1e+09        0.17040191        -84.9465264
         1.125e+09       0.178668927        -94.5976524
          1.25e+09       0.187902339        -103.947071
         1.375e+09       0.198070704        -112.987604
           1.5e+09       0.209132532        -121.718224
         1.625e+09       0.221034712        -130.142721
          1.75e+09       0.233715506        -138.269018
         1.875e+09       0.247105214        -146.107994
             2e+09       0.261128318         -153.67263
         2.125e+09       0.275704539        -160.977118
          2.25e+09       0.290749744        -168.036086
         2.375e+09       0.306178414        -174.864158
           2.5e+09       0.321903731         178.524471
         2.625e+09       0.337838823         172.116242
          2.75e+09       0.353898241         165.898351
         2.875e+09        0.37000117         159.858893
             3e+09         0.3860671         153.986773
         3.125e+09       0.402022026          148.27176
          3.25e+09       0.417795698         142.704365
         3.375e+09        0.43332324         137.275796
           3.5e+09       0.448546326         131.977907
         3.625e+09       0.463411263         126.803038
          3.75e+09       0.477871932         121.744054
         3.875e+09       0.491886937         116.794146
             4e+09       0.505421586         111.946873
         4.125e+09       0.518446509         107.196039
          4.25e+09       0.530937572         102.535663
         4.375e+09       0.542875851         97.9599484
           4.5e+09       0.554246283         93.4631845
         4.625e+09       0.565033999         89.0396883
          4.75e+09       0.575250701         84.6854238
         4.875e+09       0.584870398         80.3922202
             5e+09       0.593899897         76.1563462
         5.125e+09       0.602340327         71.9721443
          5.25e+09       0.610194256         67.8341471
         5.375e+09       0.617466109         63.7369095
           5.5e+09       0.624160152         59.6748771
         5.625e+09       0.630282522         55.6425024
          5.75e+09       0.635839608         51.6341591
         5.875e+09       0.640837983         47.6441328
             6e+09       0.645283643         43.6665517
