! Created Fri Mar 27 14:12:49 2015
!
! RX Port Z Model. Valid for RX1 and RX2.
!
! Format : SEDZ : Series Equivalent Differential Z
!
! Built from Die Layout Post Extraction & EM based Laminate "S" 
! Model.
!
! Port 1 : Differential : Across + & - Input Ports : Board Ball Pad Reference Plane.
!
# hz S ma R 50
! 1 Port Network Data from SP1.SP block
! freq  magS11  angS11  
!     
                 0       0.390933759     1.46572919e-19
         125000000        0.39076579        -2.28221453
         250000000        0.39019744        -4.57401095
         375000000       0.389203217        -6.87908387
         500000000       0.387759825         -9.1981037
         625000000       0.385862765        -11.5317494
         750000000       0.383514653        -13.8818427
         875000000       0.380719179        -16.2510282
             1e+09       0.377479616        -18.6426728
         1.125e+09       0.373798199        -21.0605822
          1.25e+09       0.369676386         -23.508916
         1.375e+09        0.36511514        -25.9922405
           1.5e+09       0.360115248        -28.5154522
         1.625e+09       0.354677638        -31.0839348
          1.75e+09        0.34880369        -33.7035846
         1.875e+09       0.342495642        -36.3809139
             2e+09       0.335756703         -39.123153
         2.125e+09       0.328591383        -41.9384013
          2.25e+09       0.321006138        -44.8357849
         2.375e+09       0.313009835        -47.8256897
           2.5e+09       0.304614375        -50.9200093
         2.625e+09       0.295835379        -54.1324116
          2.75e+09       0.286693107        -57.4787603
         2.875e+09       0.277213664        -60.9773603
             3e+09       0.267430338        -64.6498274
         3.125e+09       0.257385324        -68.5212598
          3.25e+09       0.247131994        -72.6211779
         3.375e+09       0.236737707        -76.9841436
           3.5e+09       0.226287509        -81.6503987
         3.625e+09       0.215886753        -86.6719807
          3.75e+09       0.205644714        -92.0783679
         3.875e+09       0.195767379         -97.950494
             4e+09       0.186426934        -104.335724
         4.125e+09       0.177864786        -111.285305
          4.25e+09       0.170359513        -118.834034
         4.375e+09       0.164221467        -126.985063
           4.5e+09       0.159775093         -135.69285
         4.625e+09       0.157327069        -144.849103
          4.75e+09       0.157126317        -154.282349
         4.875e+09       0.159323803        -163.776316
             5e+09        0.16394894        -173.105934
         5.125e+09       0.170910983         177.923223
          5.25e+09       0.180023884          169.44795
         5.375e+09       0.191044192         161.540217
           5.5e+09       0.203705609         154.217795
         5.625e+09       0.217742842         147.456445
          5.75e+09        0.23291304         141.213096
         5.875e+09       0.248996656         135.433495
             6e+09       0.265803277          130.06289
