! Created Fri Mar 27 14:05:33 2015
!
! ORX Port Z Model. Valid for ORX1 and ORX2.
!
! Format : SEDZ : Series Equivalent Differential Z
!
! Built from Die Layout Post Extraction & EM based Laminate "S" 
! Model.
!
! Port 1 : Differential : Across + & - Input Ports : Board Ball Pad Reference Plane.
!
# hz S ma R 50
! 1 Port Network Data from SP1.SP block
! freq  magS11  angS11  
!     
                 0       0.391558595    -1.05741684e-20
         125000000       0.391338975        -2.31063348
         250000000       0.390123115        -4.65535731
         375000000       0.387944927        -7.01721994
         500000000       0.384784156        -9.39589252
         625000000       0.380629683        -11.7909743
         750000000       0.375476417        -14.2032162
         875000000        0.36932032        -16.6343588
             1e+09       0.362155921        -19.0869273
         1.125e+09       0.353975518        -21.5639827
          1.25e+09       0.344769319        -24.0689773
         1.375e+09       0.334525886        -26.6057131
           1.5e+09       0.323232913        -29.1782956
         1.625e+09       0.310877926        -31.7912616
          1.75e+09       0.297449168        -34.4496912
         1.875e+09       0.282936546        -37.1594519
             2e+09       0.267332399        -39.9275454
         2.125e+09       0.250632481        -42.7627267
          2.25e+09       0.232837237        -45.6764408
         2.375e+09       0.213952954        -48.6844715
           2.5e+09       0.193993128         -51.809805
         2.625e+09       0.172980134        -55.0879684
          2.75e+09       0.150947451        -58.5778165
         2.875e+09       0.127943721        -62.3848627
             3e+09       0.104040345        -66.7202656
         3.125e+09      0.0793542955        -72.0735727
          3.25e+09      0.0541335602        -79.8806871
         3.375e+09      0.0292999986        -96.5548169
           3.5e+09      0.0142384164        -167.159136
         3.625e+09      0.0326822671         131.997473
          3.75e+09      0.0594940932         117.091769
         3.875e+09      0.0876246307         109.605974
             4e+09       0.116271728         104.276028
         4.125e+09       0.145155877         99.8508985
          4.25e+09       0.174099299         95.8920673
         4.375e+09       0.202956056         92.2089487
           4.5e+09       0.231595439          88.707036
         4.625e+09       0.259897035         85.3351661
          4.75e+09       0.287750439          82.064076
         4.875e+09       0.315055234         78.8763388
             5e+09       0.341721858         75.7613479
         5.125e+09       0.367672204         72.7125418
          5.25e+09       0.392839776         69.7257871
         5.375e+09       0.417170312         66.7984742
           5.5e+09       0.440591414         63.9312466
         5.625e+09       0.463131855         61.1177471
          5.75e+09       0.484744786         58.3599479
         5.875e+09       0.505397634         55.6566846
             6e+09        0.52511313         53.0065807
