! S1P to S2P converted from file: C:\GitWork\Spar\Data\ADRV9008-1.s1p
! Spar Program version 0.4
# HZ S MA R 50
         0     0.06623108    0.00000000    0.99780431  -90.00000000    0.99780431  -90.00000000    0.06623108    0.00000000
 125000000     0.06806134  -15.58002842    0.99768114 -105.58002842    0.99768114 -105.58002842    0.06806134  -15.58002842
 250000000     0.07322279  -29.90730832    0.99731561 -119.90730832    0.99731561 -119.90730832    0.07322279  -29.90730832
 375000000     0.08106515  -42.31887852    0.99670880 -132.31887852    0.99670880 -132.31887852    0.08106515  -42.31887852
 500000000     0.09085599  -52.77910661    0.99586404 -142.77910661    0.99586404 -142.77910661    0.09085599  -52.77910661
 625000000     0.10198851  -61.57128368    0.99478558 -151.57128368    0.99478558 -151.57128368    0.10198851  -61.57128368
 750000000     0.11401799  -69.04631972    0.99347869 -159.04631972    0.99347869 -159.04631972    0.11401799  -69.04631972
 875000000     0.12663234  -75.51243038    0.99194972 -165.51243038    0.99194972 -165.51243038    0.12663234  -75.51243038
1000000000     0.13961480  -81.21041770    0.99020589 -171.21041770    0.99020589 -171.21041770    0.13961480  -81.21041770
1125000000     0.15281222  -86.32010828    0.98825524 -176.32010828    0.98825524 -176.32010828    0.15281222  -86.32010828
1250000000     0.16611380  -90.97403643    0.98610659  179.02596357    0.98610659  179.02596357    0.16611380  -90.97403643
1375000000     0.17943754  -95.27012297    0.98376937  174.72987703    0.98376937  174.72987703    0.17943754  -95.27012297
1500000000     0.19272065  -99.28123611    0.98125366  170.71876389    0.98125366  170.71876389    0.19272065  -99.28123611
1625000000     0.20591442 -103.06232564    0.97857000  166.93767436    0.97857000  166.93767436    0.20591442 -103.06232564
1750000000     0.21898008 -106.65532586    0.97572933  163.34467414    0.97572933  163.34467414    0.21898008 -106.65532586
1875000000     0.23188633 -110.09264608    0.97274289  159.90735392    0.97274289  159.90735392    0.23188633 -110.09264608
2000000000     0.24460746 -113.39970054    0.96962219  156.60029946    0.96962219  156.60029946    0.24460746 -113.39970054
2125000000     0.25712215 -116.59669059    0.96637891  153.40330941    0.96637891  153.40330941    0.25712215 -116.59669059
2250000000     0.26941265 -119.69982629    0.96302483  150.30017371    0.96302483  150.30017371    0.26941265 -119.69982629
2375000000     0.28146431 -122.72229007    0.95957170  147.27770993    0.95957170  147.27770993    0.28146431 -122.72229007
2500000000     0.29326506 -125.67492369    0.95603117  144.32507631    0.95603117  144.32507631    0.29326506 -125.67492369
2625000000     0.30480490 -128.56674009    0.95241481  141.43325991    0.95241481  141.43325991    0.30480490 -128.56674009
2750000000     0.31607590 -131.40533716    0.94873391  138.59466284    0.94873391  138.59466284    0.31607590 -131.40533716
2875000000     0.32707118 -134.19710974    0.94499971  135.80289026    0.94499971  135.80289026    0.32707118 -134.19710974
3000000000     0.33778630 -136.94762974    0.94122283  133.05237026    0.94122283  133.05237026    0.33778630 -136.94762974
3125000000     0.34821735 -139.66166926    0.93741382  130.33833074    0.93741382  130.33833074    0.34821735 -139.66166926
3250000000     0.35836203 -142.34343512    0.93358270  127.65656488    0.93358270  127.65656488    0.35836203 -142.34343512
3375000000     0.36821936 -144.99664547    0.92973894  125.00335453    0.92973894  125.00335453    0.36821936 -144.99664547
3500000000     0.37778984 -147.62459085    0.92589137  122.37540915    0.92589137  122.37540915    0.37778984 -147.62459085
3625000000     0.38709048 -150.23200898    0.92204174  119.76799102    0.92204174  119.76799102    0.38709048 -150.23200898
3750000000     0.39605041 -152.81764220    0.91822877  117.18235780    0.91822877  117.18235780    0.39605041 -152.81764220
3875000000     0.40476269 -155.38649305    0.91442176  114.61350695    0.91442176  114.61350695    0.40476269 -155.38649305
4000000000     0.41319037 -157.94100789    0.91064467  112.05899211    0.91064467  112.05899211    0.41319037 -157.94100789
4125000000     0.42133851 -160.48306142    0.90690345  109.51693858    0.90690345  109.51693858    0.42133851 -160.48306142
4250000000     0.42921122 -163.01464259    0.90320415  106.98535741    0.90320415  106.98535741    0.42921122 -163.01464259
4375000000     0.43681261 -165.53764133    0.89955252  104.46235867    0.89955252  104.46235867    0.43681261 -165.53764133
4500000000     0.44414765 -168.05389049    0.89595361  101.94610951    0.89595361  101.94610951    0.44414765 -168.05389049
4625000000     0.45122106 -170.56509963    0.89241221   99.43490037    0.89241221   99.43490037    0.45122106 -170.56509963
4750000000     0.45803839 -173.07294311    0.88893241   96.92705689    0.88893241   96.92705689    0.45803839 -173.07294311
4875000000     0.46460522 -175.57901278    0.88551792   94.42098722    0.88551792   94.42098722    0.46460522 -175.57901278
5000000000     0.47092751 -178.08485290    0.88217191   91.91514710    0.88217191   91.91514710    0.47092751 -178.08485290
5125000000     0.47701149  179.40803694    0.87889706   89.40803694    0.87889706   89.40803694    0.47701149  179.40803694
5250000000     0.48286344  176.89821734    0.87569567   86.89821734    0.87569567   86.89821734    0.48286344  176.89821734
5375000000     0.48849041  174.38425396    0.87256926   84.38425396    0.87256926   84.38425396    0.48849041  174.38425396
5500000000     0.49390028  171.86512274    0.86951855   81.86512274    0.86951855   81.86512274    0.49390028  171.86512274
5625000000     0.49909711  169.33887798    0.86654606   79.33887798    0.86654606   79.33887798    0.49909711  169.33887798
5750000000     0.50408984  166.80456444    0.86365122   76.80456444    0.86365122   76.80456444    0.50408984  166.80456444
5875000000     0.50888464  164.26077908    0.86083472   74.26077908    0.86083472   74.26077908    0.50888464  164.26077908
6000000000     0.51349048  161.70634165    0.85809529   71.70634165    0.85809529   71.70634165    0.51349048  161.70634165
