! S1P to S2P converted from file: C:\GitWork\Spar\Data\ADRV9009_ORX.s1p
! Spar Program version 0.4
# HZ S MA R 50
         0     0.06696558   -0.00000000    0.99775529  -90.00000000    0.99775529  -90.00000000    0.06696558   -0.00000000
 125000000     0.06876837  -15.64298028    0.99763265 -105.64298028    0.99763265 -105.64298028    0.06876837  -15.64298028
 250000000     0.07340923  -30.39859163    0.99730190 -120.39859163    0.99730190 -120.39859163    0.07340923  -30.39859163
 375000000     0.08045518  -43.54723721    0.99675823 -133.54723721    0.99675823 -133.54723721    0.08045518  -43.54723721
 500000000     0.08930914  -54.98802027    0.99600395 -144.98802027    0.99600395 -144.98802027    0.08930914  -54.98802027
 625000000     0.09943995  -64.90963822    0.99504356 -154.90963822    0.99504356 -154.90963822    0.09943995  -64.90963822
 750000000     0.11043760  -73.59124446    0.99388306 -163.59124446    0.99388306 -163.59124446    0.11043760  -73.59124446
 875000000     0.12200286  -81.29792659    0.99252975 -171.29792659    0.99252975 -171.29792659    0.12200286  -81.29792659
1000000000     0.13392096  -88.24745592    0.99099202 -178.24745592    0.99099202 -178.24745592    0.13392096  -88.24745592
1125000000     0.14603674  -94.60850499    0.98927917  175.39149501    0.98927917  175.39149501    0.14603674  -94.60850499
1250000000     0.15823627 -100.50888346    0.98740128  169.49111654    0.98740128  169.49111654    0.15823627 -100.50888346
1375000000     0.17043420 -106.04506442    0.98536906  163.95493558    0.98536906  163.95493558    0.17043420 -106.04506442
1500000000     0.18256502 -111.29013985    0.98319378  158.70986015    0.98319378  158.70986015    0.18256502 -111.29013985
1625000000     0.19457780 -116.30004040    0.98088709  153.69995960    0.98088709  153.69995960    0.19457780 -116.30004040
1750000000     0.20643219 -121.11801324    0.97846091  148.88198676    0.97846091  148.88198676    0.20643219 -121.11801324
1875000000     0.21809599 -125.77789005    0.97592732  144.22210995    0.97592732  144.22210995    0.21809599 -125.77789005
2000000000     0.22954319 -130.30650438    0.97329848  139.69349562    0.97329848  139.69349562    0.22954319 -130.30650438
2125000000     0.24075291 -134.72542136    0.97058644  135.27457864    0.97058644  135.27457864    0.24075291 -134.72542136
2250000000     0.25170839 -139.05214593    0.96780312  130.94785407    0.96780312  130.94785407    0.25170839 -139.05214593
2375000000     0.26239644 -143.30107396    0.96496016  126.69892604    0.96496016  126.69892604    0.26239644 -143.30107396
2500000000     0.27280690 -147.48418565    0.96206881  122.51581435    0.96206881  122.51581435    0.27280690 -147.48418565
2625000000     0.28293223 -151.61156592    0.95913990  118.38843408    0.95913990  118.38843408    0.28293223 -151.61156592
2750000000     0.29276734 -155.69180993    0.95618371  114.30819007    0.95618371  114.30819007    0.29276734 -155.69180993
2875000000     0.30230883 -159.73227980    0.95321004  110.26772020    0.95321004  110.26772020    0.30230883 -159.73227980
3000000000     0.31155582 -163.73941302    0.95022785  106.26058698    0.95022785  106.26058698    0.31155582 -163.73941302
3125000000     0.32050864 -167.71882899    0.94724559  102.28117101    0.94724559  102.28117101    0.32050864 -167.71882899
3250000000     0.32916944 -171.67551325    0.94427087   98.32448675    0.94427087   98.32448675    0.32916944 -171.67551325
3375000000     0.33754183 -175.61391077    0.94131053   94.38608923    0.94131053   94.38608923    0.33754183 -175.61391077
3500000000     0.34563050 -179.53799807    0.93837069   90.46200193    0.93837069   90.46200193    0.34563050 -179.53799807
3625000000     0.35344261  176.54871894    0.93545621   86.54871894    0.93545621   86.54871894    0.35344261  176.54871894
3750000000     0.36098298  172.64242305    0.93257240   82.64242305    0.93257240   82.64242305    0.36098298  172.64242305
3875000000     0.36826186  168.74084487    0.92972211   78.74084487    0.92972211   78.74084487    0.36826186  168.74084487
4000000000     0.37528805  164.84092848    0.92690824   74.84092848    0.92690824   74.84092848    0.37528805  164.84092848
4125000000     0.38207164  160.94019608    0.92413271   70.94019608    0.92413271   70.94019608    0.38207164  160.94019608
4250000000     0.38862363  157.03637370    0.92139659   67.03637370    0.92139659   67.03637370    0.38862363  157.03637370
4375000000     0.39495566  153.12739202    0.91870019   63.12739202    0.91870019   63.12739202    0.39495566  153.12739202
4500000000     0.40108030  149.21137046    0.91604290   59.21137046    0.91604290   59.21137046    0.40108030  149.21137046
4625000000     0.40701047  145.28662773    0.91342349   55.28662773    0.91342349   55.28662773    0.40701047  145.28662773
4750000000     0.41275994  141.35166191    0.91083985   51.35166191    0.91083985   51.35166191    0.41275994  141.35166191
4875000000     0.41834278  137.40516297    0.90828923   47.40516297    0.90828923   47.40516297    0.41834278  137.40516297
5000000000     0.42377355  133.44601082    0.90576817   43.44601082    0.90576817   43.44601082    0.42377355  133.44601082
5125000000     0.42906723  129.47327467    0.90327256   39.47327467    0.90327256   39.47327467    0.42906723  129.47327467
5250000000     0.43423890  125.48622166    0.90079775   35.48622166    0.90079775   35.48622166    0.43423890  125.48622166
5375000000     0.43930427  121.48431214    0.89833833   31.48431214    0.89833833   31.48431214    0.43930427  121.48431214
5500000000     0.44426675  117.47140680    0.89589455   27.47140680    0.89589455   27.47140680    0.44426675  117.47140680
5625000000     0.44916526  113.43873293    0.89344869   23.43873293    0.89344869   23.43873293    0.44916526  113.43873293
5750000000     0.45400999  109.39068619    0.89099659   19.39068619    0.89099659   19.39068619    0.45400999  109.39068619
5875000000     0.45879684  105.32890676    0.88854120   15.32890676    0.88854120   15.32890676    0.45879684  105.32890676
6000000000     0.46356071  101.25158090    0.88606516   11.25158090    0.88606516   11.25158090    0.46356071  101.25158090
