! S1P to S2P converted from file: C:\GitWork\Spar\Data\dummy.s1p
! Using gain file: C:\GitWork\Spar\Data\Gain.s1p
! Spar Program version 0.4
# HZ S MA R 50
 300000000     0.16175830  127.73958590    0.19228339   37.73958590    0.19228339   37.73958590    0.16175830  127.73958590
 306750016     0.15377498  128.82071081    0.19763778   38.82071081    0.19763778   38.82071081    0.15377498  128.82071081
 313500000     0.14677418  129.59771327    0.20299214   39.59771327    0.20299214   39.59771327    0.14677418  129.59771327
 320249984     0.13993909  130.47871653    0.20834651   40.47871653    0.20834651   40.47871653    0.13993909  130.47871653
 327000000     0.13327321  131.41283802    0.21370090   41.41283802    0.21370090   41.41283802    0.13327321  131.41283802
 333750016     0.12682326  132.45215112    0.21905529   42.45215112    0.21905529   42.45215112    0.12682326  132.45215112
 340500000     0.12050536  133.51560720    0.22440965   43.51560720    0.22440965   43.51560720    0.12050536  133.51560720
 347249984     0.11432816  134.71635975    0.22976402   44.71635975    0.22976402   44.71635975    0.11432816  134.71635975
 354000000     0.10850415  135.94640858    0.23511841   45.94640858    0.23511841   45.94640858    0.10850415  135.94640858
 360750016     0.10274297  137.32584465    0.24047280   47.32584465    0.24047280   47.32584465    0.10274297  137.32584465
 367500000     0.09718730  138.71251762    0.24582716   48.71251762    0.24582716   48.71251762    0.09718730  138.71251762
 374249984     0.09192905  140.24531128    0.25118153   50.24531128    0.25118153   50.24531128    0.09192905  140.24531128
 381000000     0.08682199  141.84495808    0.25653592   51.84495808    0.25653592   51.84495808    0.08682199  141.84495808
 387750016     0.08193008  143.49924677    0.26189031   53.49924677    0.26189031   53.49924677    0.08193008  143.49924677
 394500000     0.07735615  145.18419521    0.26724468   55.18419521    0.26724468   55.18419521    0.07735615  145.18419521
 401249984     0.07302508  146.91641356    0.27306362   56.91641356    0.27306362   56.91641356    0.07302508  146.91641356
 408000000     0.06907436  148.79559240    0.28092677   58.79559240    0.28092677   58.79559240    0.06907436  148.79559240
 414750016     0.06537681  150.73792552    0.28878992   60.73792552    0.28878992   60.73792552    0.06537681  150.73792552
 421500000     0.06217709  152.72081280    0.29665303   62.72081280    0.29665303   62.72081280    0.06217709  152.72081280
 428249984     0.05916769  154.84025298    0.30451614   64.84025298    0.30451614   64.84025298    0.05916769  154.84025298
 435000000     0.05650393  156.95241732    0.31237929   66.95241732    0.31237929   66.95241732    0.05650393  156.95241732
 441750016     0.05428485  159.14496649    0.32024244   69.14496649    0.32024244   69.14496649    0.05428485  159.14496649
 448500000     0.05237693  161.49152013    0.32810555   71.49152013    0.32810555   71.49152013    0.05237693  161.49152013
 455249984     0.05078946  163.87155850    0.33596866   73.87155850    0.33596866   73.87155850    0.05078946  163.87155850
 462000000     0.04954197  166.30977712    0.34383181   76.30977712    0.34383181   76.30977712    0.04954197  166.30977712
 468750016     0.04863204  168.76406478    0.35169496   78.76406478    0.35169496   78.76406478    0.04863204  168.76406478
 475500000     0.04814631  171.19544640    0.35955807   81.19544640    0.35955807   81.19544640    0.04814631  171.19544640
 482249984     0.04798445  173.50295940    0.36742118   83.50295940    0.36742118   83.50295940    0.04798445  173.50295940
 489000000     0.04813154  175.77804039    0.37528433   85.77804039    0.37528433   85.77804039    0.04813154  175.77804039
 495750016     0.04864078  178.10362288    0.38314748   88.10362288    0.38314748   88.10362288    0.04864078  178.10362288
 502500000     0.04949609 -179.74356868    0.39133430   90.25643132    0.39133430   90.25643132    0.04949609 -179.74356868
 509249984     0.05061151 -177.63616666    0.40007142   92.36383334    0.40007142   92.36383334    0.05061151 -177.63616666
 516000000     0.05205088 -175.56299840    0.40880858   94.43700160    0.40880858   94.43700160    0.05205088 -175.56299840
 522750016     0.05371695 -173.59690372    0.41754574   96.40309628    0.41754574   96.40309628    0.05371695 -173.59690372
 529500000     0.05576161 -171.64027764    0.42628286   98.35972236    0.42628286   98.35972236    0.05576161 -171.64027764
 536249984     0.05798618 -169.74697151    0.43501997  100.25302849    0.43501997  100.25302849    0.05798618 -169.74697151
 543000000     0.06045902 -167.96641980    0.44375713  102.03358020    0.44375713  102.03358020    0.06045902 -167.96641980
 549750016     0.06314517 -166.19150048    0.45249429  103.80849952    0.45249429  103.80849952    0.06314517 -166.19150048
 556499968     0.06591930 -164.53752475    0.46123137  105.46247525    0.46123137  105.46247525    0.06591930 -164.53752475
 563249984     0.06903455 -162.83253796    0.46996853  107.16746204    0.46996853  107.16746204    0.06903455 -162.83253796
 570000000     0.07230312 -161.30972671    0.47870569  108.69027329    0.47870569  108.69027329    0.07230312 -161.30972671
 576750016     0.07570819 -159.72889231    0.48744285  110.27110769    0.48744285  110.27110769    0.07570819 -159.72889231
 583500032     0.07930950 -158.11930260    0.49618001  111.88069740    0.49618001  111.88069740    0.07930950 -158.11930260
 590249984     0.08289391 -156.54742874    0.50491709  113.45257126    0.50491709  113.45257126    0.08289391 -156.54742874
 597000000     0.08667418 -154.95271279    0.51365425  115.04728721    0.51365425  115.04728721    0.08667418 -154.95271279
 603750016     0.09043441 -153.43508815    0.52401032  116.56491185    0.52401032  116.56491185    0.09043441 -153.43508815
 610499968     0.09419360 -151.87565481    0.53566140  118.12434519    0.53566140  118.12434519    0.09419360 -151.87565481
 617249984     0.09789119 -150.31035106    0.54731259  119.68964894    0.54731259  119.68964894    0.09789119 -150.31035106
 624000000     0.10155386 -148.83396630    0.55896378  121.16603370    0.55896378  121.16603370    0.10155386 -148.83396630
 630750016     0.10527395 -147.38417686    0.57061497  122.61582314    0.57061497  122.61582314    0.10527395 -147.38417686
 637500032     0.10873310 -145.91902053    0.58226616  124.08097947    0.58226616  124.08097947    0.10873310 -145.91902053
 644249984     0.11217064 -144.50968761    0.59391724  125.49031239    0.59391724  125.49031239    0.11217064 -144.50968761
 651000000     0.11549959 -143.12203842    0.60556844  126.87796158    0.60556844  126.87796158    0.11549959 -143.12203842
 657750016     0.11881100 -141.80848031    0.61721963  128.19151969    0.61721963  128.19151969    0.11881100 -141.80848031
 664499968     0.12199464 -140.53502331    0.62887071  129.46497669    0.62887071  129.46497669    0.12199464 -140.53502331
 671249984     0.12498383 -139.20249642    0.64052190  130.79750358    0.64052190  130.79750358    0.12498383 -139.20249642
 678000000     0.12783002 -137.96113593    0.65217309  132.03886407    0.65217309  132.03886407    0.12783002 -137.96113593
 684750016     0.13053546 -136.68330058    0.66382428  133.31669942    0.66382428  133.31669942    0.13053546 -136.68330058
 691500032     0.13304990 -135.55931712    0.67547547  134.44068288    0.67547547  134.44068288    0.13304990 -135.55931712
 698249984     0.13536275 -134.42572684    0.68712655  135.57427316    0.68712655  135.57427316    0.13536275 -134.42572684
 705000000     0.13738989 -133.34048265    0.70086834  136.65951735    0.70086834  136.65951735    0.13738989 -133.34048265
 711750016     0.13927536 -132.31837747    0.71534185  137.68162253    0.71534185  137.68162253    0.13927536 -132.31837747
 718499968     0.14083931 -131.39196003    0.72981523  138.60803997    0.72981523  138.60803997    0.14083931 -131.39196003
 725249984     0.14229064 -130.53676609    0.74428874  139.46323391    0.74428874  139.46323391    0.14229064 -130.53676609
 732000000     0.14359514 -129.80933975    0.75876225  140.19066025    0.75876225  140.19066025    0.14359514 -129.80933975
 738750016     0.14467491 -129.07855047    0.77323576  140.92144953    0.77323576  140.92144953    0.14467491 -129.07855047
 745500032     0.14568430 -128.47223914    0.78770927  141.52776086    0.78770927  141.52776086    0.14568430 -128.47223914
 752249984     0.14657979 -127.89369215    0.80218265  142.10630785    0.80218265  142.10630785    0.14657979 -127.89369215
 759000000     0.14735300 -127.46911395    0.81665616  142.53088605    0.81665616  142.53088605    0.14735300 -127.46911395
 765750016     0.14805187 -127.08572342    0.83112967  142.91427658    0.83112967  142.91427658    0.14805187 -127.08572342
 772499968     0.14849845 -126.77915576    0.84560304  143.22084424    0.84560304  143.22084424    0.14849845 -126.77915576
 779249984     0.14889323 -126.52348278    0.86007655  143.47651722    0.86007655  143.47651722    0.14889323 -126.52348278
 786000000     0.14925810 -126.43364364    0.87455006  143.56635636    0.87455006  143.56635636    0.14925810 -126.43364364
 792750016     0.14952102 -126.39906497    0.88902358  143.60093503    0.88902358  143.60093503    0.14952102 -126.39906497
 799500032     0.14973232 -126.54624472    0.90349709  143.45375528    0.90349709  143.45375528    0.14973232 -126.54624472
 806249984     0.15008789 -126.77938803    0.90634542  143.22061197    0.90634542  143.22061197    0.15008789 -126.77938803
 813000000     0.15052577 -127.11901472    0.90826382  142.88098528    0.90826382  142.88098528    0.15052577 -127.11901472
 819750016     0.15104542 -127.59763026    0.91018222  142.40236974    0.91018222  142.40236974    0.15104542 -127.59763026
 826499968     0.15186751 -128.09273675    0.91210060  141.90726325    0.91210060  141.90726325    0.15186751 -128.09273675
 833249984     0.15285690 -128.71414033    0.91401900  141.28585967    0.91401900  141.28585967    0.15285690 -128.71414033
 840000000     0.15412016 -129.34181856    0.91593740  140.65818144    0.91593740  140.65818144    0.15412016 -129.34181856
 846750016     0.15553787 -129.98992463    0.91785580  140.01007537    0.91785580  140.01007537    0.15553787 -129.98992463
 853500032     0.15714590 -130.63785960    0.91977420  139.36214040    0.91977420  139.36214040    0.15714590 -130.63785960
 860249984     0.15884202 -131.28857847    0.92169259  138.71142153    0.92169259  138.71142153    0.15884202 -131.28857847
 867000000     0.16079692 -131.99843196    0.92361099  138.00156804    0.92361099  138.00156804    0.16079692 -131.99843196
 873750016     0.16300820 -132.65398218    0.92552939  137.34601782    0.92552939  137.34601782    0.16300820 -132.65398218
 880499968     0.16553788 -133.36723987    0.92744777  136.63276013    0.92744777  136.63276013    0.16553788 -133.36723987
 887249984     0.16819697 -133.97796844    0.92936617  136.02203156    0.92936617  136.02203156    0.16819697 -133.97796844
 894000000     0.17120020 -134.60187717    0.93128457  135.39812283    0.93128457  135.39812283    0.17120020 -134.60187717
 900750016     0.17503149 -135.22710098    0.93320297  134.77289902    0.93320297  134.77289902    0.17503149 -135.22710098
 907500032     0.18050531 -135.80967577    0.93512137  134.19032423    0.93512137  134.19032423    0.18050531 -135.80967577
 914249984     0.18261488 -136.32553203    0.93703976  133.67446797    0.93703976  133.67446797    0.18261488 -136.32553203
 921000000     0.18524960 -136.40268740    0.93895816  133.59731260    0.93895816  133.59731260    0.18524960 -136.40268740
 927750016     0.18913681 -136.70243319    0.94087656  133.29756681    0.94087656  133.29756681    0.18913681 -136.70243319
 934499968     0.19292762 -136.84632231    0.94279494  133.15367769    0.94279494  133.15367769    0.19292762 -136.84632231
 941249984     0.19702752 -136.99110024    0.94471334  133.00889976    0.94471334  133.00889976    0.19702752 -136.99110024
 948000000     0.20279314 -137.48761739    0.94663174  132.51238261    0.94663174  132.51238261    0.20279314 -137.48761739
 954750016     0.20559786 -137.04465076    0.94619343  132.95534924    0.94619343  132.95534924    0.20559786 -137.04465076
 961500032     0.20834842 -137.01671008    0.94476281  132.98328992    0.94476281  132.98328992    0.20834842 -137.01671008
 968249984     0.21210765 -136.89903692    0.94333221  133.10096308    0.94333221  133.10096308    0.21210765 -136.89903692
 975000000     0.21580791 -136.74020369    0.94190160  133.25979631    0.94190160  133.25979631    0.21580791 -136.74020369
 981750016     0.21940873 -136.50041426    0.94047099  133.49958574    0.94047099  133.49958574    0.21940873 -136.50041426
 988499968     0.22286083 -136.13459127    0.93904039  133.86540873    0.93904039  133.86540873    0.22286083 -136.13459127
 995249984     0.22623095 -135.64969969    0.93760978  134.35030031    0.93760978  134.35030031    0.22623095 -135.64969969
1002000000     0.22914338 -135.25082331    0.93617916  134.74917669    0.93617916  134.74917669    0.22914338 -135.25082331
1008750016     0.23199825 -134.89652550    0.93474855  135.10347450    0.93474855  135.10347450    0.23199825 -134.89652550
1015500032     0.23449614 -134.46340304    0.93331794  135.53659696    0.93331794  135.53659696    0.23449614 -134.46340304
1022249984     0.23662366 -134.00343687    0.93188734  135.99656313    0.93188734  135.99656313    0.23662366 -134.00343687
1029000000     0.23879249 -133.51834470    0.93045672  136.48165530    0.93045672  136.48165530    0.23879249 -133.51834470
1035750016     0.24051195 -133.04090414    0.92902611  136.95909586    0.92902611  136.95909586    0.24051195 -133.04090414
1042499968     0.24220002 -132.59805984    0.92759551  137.40194016    0.92759551  137.40194016    0.24220002 -132.59805984
1049249984     0.24357006 -132.25089580    0.92616490  137.74910420    0.92616490  137.74910420    0.24357006 -132.25089580
1056000000     0.24457731 -131.88493323    0.92473428  138.11506677    0.92473428  138.11506677    0.24457731 -131.88493323
1062750016     0.24552592 -131.50705006    0.92330367  138.49294994    0.92330367  138.49294994    0.24552592 -131.50705006
1069500032     0.24631517 -131.15200920    0.92187306  138.84799080    0.92187306  138.84799080    0.24631517 -131.15200920
1076249984     0.24697390 -130.86633666    0.92044246  139.13366334    0.92044246  139.13366334    0.24697390 -130.86633666
1083000064     0.24726973 -130.52676433    0.91901183  139.47323567    0.91901183  139.47323567    0.24726973 -130.52676433
1089750016     0.24751773 -130.28241651    0.91758123  139.71758349    0.91758123  139.71758349    0.24751773 -130.28241651
1096499968     0.24752223 -130.07315526    0.91615063  139.92684474    0.91615063  139.92684474    0.24752223 -130.07315526
1103250048     0.24756298 -129.92000031    0.91472001  140.07999969    0.91472001  140.07999969    0.24756298 -129.92000031
1110000000     0.24713516 -129.83678477    0.91328941  140.16321523    0.91328941  140.16321523    0.24713516 -129.83678477
1116749952     0.24690213 -129.79031722    0.91185881  140.20968278    0.91185881  140.20968278    0.24690213 -129.79031722
1123500032     0.24643647 -129.85090240    0.91042818  140.14909760    0.91042818  140.14909760    0.24643647 -129.85090240
1130249984     0.24629976 -129.96739423    0.90899758  140.03260577    0.90899758  140.03260577    0.24629976 -129.96739423
1136999936     0.24616033 -130.17313118    0.90756698  139.82686882    0.90756698  139.82686882    0.24616033 -130.17313118
1143750016     0.24624999 -130.44330452    0.90613635  139.55669548    0.90613635  139.55669548    0.24624999 -130.44330452
1150499968     0.24630108 -130.71384942    0.90470575  139.28615058    0.90470575  139.28615058    0.24630108 -130.71384942
1157250048     0.24637669 -131.00895354    0.90327513  138.99104646    0.90327513  138.99104646    0.24637669 -131.00895354
1164000000     0.24659618 -131.39693955    0.90184453  138.60306045    0.90184453  138.60306045    0.24659618 -131.39693955
1170749952     0.24681127 -131.80707850    0.90041393  138.19292150    0.90041393  138.19292150    0.24681127 -131.80707850
1177500032     0.24709139 -132.17327156    0.89898330  137.82672844    0.89898330  137.82672844    0.24709139 -132.17327156
1184249984     0.24781545 -132.63376589    0.89755270  137.36623411    0.89755270  137.36623411    0.24781545 -132.63376589
1191000064     0.24869020 -133.18681633    0.89612208  136.81318367    0.89612208  136.81318367    0.24869020 -133.18681633
1197750016     0.24970522 -133.76205507    0.89469148  136.23794493    0.89469148  136.23794493    0.24970522 -133.76205507
1204499968     0.25109807 -134.36499601    0.89384823  135.63500399    0.89384823  135.63500399    0.25109807 -134.36499601
1211250048     0.25271193 -134.98928568    0.89329864  135.01071432    0.89329864  135.01071432    0.25271193 -134.98928568
1218000000     0.25463914 -135.51043241    0.89274906  134.48956759    0.89274906  134.48956759    0.25463914 -135.51043241
1224749952     0.25701146 -136.06758333    0.89219949  133.93241667    0.89219949  133.93241667    0.25701146 -136.06758333
1231500032     0.25924212 -136.48750945    0.89164990  133.51249055    0.89164990  133.51249055    0.25924212 -136.48750945
1238249984     0.26195351 -136.88593200    0.89110033  133.11406800    0.89110033  133.11406800    0.26195351 -136.88593200
1244999936     0.26466290 -137.32580349    0.89055075  132.67419651    0.89055075  132.67419651    0.26466290 -137.32580349
1251750016     0.26722663 -137.69076253    0.89000116  132.30923747    0.89000116  132.30923747    0.26722663 -137.69076253
1258499968     0.26996717 -138.01896108    0.88945159  131.98103892    0.88945159  131.98103892    0.26996717 -138.01896108
1265250048     0.27270366 -138.38327829    0.88890200  131.61672171    0.88890200  131.61672171    0.27270366 -138.38327829
1272000000     0.27562625 -138.58660240    0.88835242  131.41339760    0.88835242  131.41339760    0.27562625 -138.58660240
1278749952     0.27860555 -138.81588696    0.88780285  131.18411304    0.88780285  131.18411304    0.27860555 -138.81588696
1285500032     0.28176746 -138.93885716    0.88725326  131.06114284    0.88725326  131.06114284    0.28176746 -138.93885716
1292249984     0.28476829 -139.04846604    0.88670369  130.95153396    0.88670369  130.95153396    0.28476829 -139.04846604
1299000064     0.28784468 -138.98975321    0.88615410  131.01024679    0.88615410  131.01024679    0.28784468 -138.98975321
1305750016     0.29087245 -138.98193955    0.88560452  131.01806045    0.88560452  131.01806045    0.29087245 -138.98193955
1312499968     0.29344927 -138.85941197    0.88505495  131.14058803    0.88505495  131.14058803    0.29344927 -138.85941197
1319250048     0.29591135 -138.70778913    0.88450536  131.29221087    0.88450536  131.29221087    0.29591135 -138.70778913
1326000000     0.29818118 -138.50167015    0.88395579  131.49832985    0.88395579  131.49832985    0.29818118 -138.50167015
1332749952     0.30019335 -138.28843265    0.88340621  131.71156735    0.88340621  131.71156735    0.30019335 -138.28843265
1339500032     0.30189544 -138.10664155    0.88285662  131.89335845    0.88285662  131.89335845    0.30189544 -138.10664155
1346249984     0.30360611 -137.88415331    0.88230705  132.11584669    0.88230705  132.11584669    0.30360611 -137.88415331
1352999936     0.30527249 -137.70608811    0.88175747  132.29391189    0.88175747  132.29391189    0.30527249 -137.70608811
1359750016     0.30644504 -137.48231635    0.88120789  132.51768365    0.88120789  132.51768365    0.30644504 -137.48231635
1366499968     0.30756218 -137.16167645    0.88065831  132.83832355    0.88065831  132.83832355    0.30756218 -137.16167645
1373250048     0.30846291 -136.86726274    0.88010872  133.13273726    0.88010872  133.13273726    0.30846291 -136.86726274
