!
# HZ S RI R 50
300000000.0 -0.0990079790353775 0.12791860103607178
306750016.0 -0.09639929980039597 0.11980783939361572
313500000.0 -0.09355287253856659 0.11309518665075302
320249984.0 -0.09084363281726837 0.10644426941871643
327000000.0 -0.0881575495004654 0.09994995594024658
333750016.0 -0.08560243248939514 0.09357543289661407
340500000.0 -0.08297422528266907 0.08738890290260315
347249984.0 -0.08044102042913437 0.0812414288520813
354000000.0 -0.07798081636428833 0.07544628530740738
360750016.0 -0.07553873211145401 0.069642074406147
367500000.0 -0.0730273425579071 0.06412782520055771
374249984.0 -0.07067409157752991 0.058788806200027466
381000000.0 -0.06827177107334137 0.05363789573311806
387750016.0 -0.06585941463708878 0.048734743148088455
394500000.0 -0.0635087639093399 0.044165726751089096
401249984.0 -0.06118589639663696 0.039861612021923065
408000000.0 -0.05908098816871643 0.03578693047165871
414750016.0 -0.057034268975257874 0.031956516206264496
421500000.0 -0.055261991918087006 0.028497423976659775
428249984.0 -0.05355421453714371 0.025154760107398033
435000000.0 -0.05199378728866577 0.02212103083729744
441750016.0 -0.05072833225131035 0.019325662404298782
448500000.0 -0.04966782405972481 0.016626795753836632
455249984.0 -0.04879045858979225 0.01410888321697712
462000000.0 -0.0481344573199749 0.011725214309990406
468750016.0 -0.04769991710782051 0.009475931525230408
475500000.0 -0.04757896065711975 0.007369484286755323
482249984.0 -0.04767628386616707 0.005429531913250685
489000000.0 -0.04800092428922653 0.0035434644669294357
495750016.0 -0.04861413687467575 0.0016096197068691254
502500000.0 -0.049495596438646317 -0.0002215225249528885
509249984.0 -0.050568439066410065 -0.002087470144033432
516000000.0 -0.051894888281822205 -0.0040268078446388245
522750016.0 -0.05338186025619507 -0.005990656092762947
529500000.0 -0.05516912788152695 -0.00810704380273819
536249984.0 -0.05706021189689636 -0.010321281850337982
543000000.0 -0.0591304711997509 -0.012604795396327972
549750016.0 -0.06132020428776741 -0.015071332454681396
556499968.0 -0.06353337317705154 -0.01757456175982952
563249984.0 -0.06595879793167114 -0.020376618951559067
570000000.0 -0.06849019229412079 -0.02316969260573387
576750016.0 -0.07101910561323166 -0.026230059564113617
583500032.0 -0.07359618693590164 -0.029556680470705032
590249984.0 -0.07604603469371796 -0.03299093246459961
597000000.0 -0.07852322608232498 -0.03669491037726402
603750016.0 -0.0808870941400528 -0.0404433012008667
610499968.0 -0.08307185024023056 -0.044401608407497406
617249984.0 -0.0850401297211647 -0.04848567396402359
624000000.0 -0.08689671009778976 -0.05255613476037979
630750016.0 -0.08867262303829193 -0.056743018329143524
637500032.0 -0.09005779772996902 -0.060930121690034866
644249984.0 -0.0913308709859848 -0.06512238085269928
651000000.0 -0.09238991886377335 -0.06931275874376297
657750016.0 -0.09337931871414185 -0.07345990091562271
664499968.0 -0.09418147802352905 -0.0775405764579773
671249984.0 -0.09461569786071777 -0.08166288584470749
678000000.0 -0.09493817389011383 -0.0855993926525116
684750016.0 -0.09497405588626862 -0.08955129981040955
691500032.0 -0.09499439597129822 -0.09315761178731918
698249984.0 -0.0947517678141594 -0.09667044878005981
705000000.0 -0.09429512917995453 -0.09992201626300812
711750016.0 -0.09376709908246994 -0.10298231989145279
718499968.0 -0.09312388300895691 -0.10565819591283798
725249984.0 -0.09247978776693344 -0.10813932865858078
732000000.0 -0.09193462133407593 -0.11030679196119308
738750016.0 -0.09120092540979385 -0.11230859160423279
745500032.0 -0.09063535928726196 -0.11405765265226364
752249984.0 -0.09002906084060669 -0.11567369103431702
759000000.0 -0.08963979035615921 -0.11695133149623871
765750016.0 -0.08927664160728455 -0.11810603737831116
772499968.0 -0.08891081064939499 -0.11893972009420395
779249984.0 -0.08861413598060608 -0.11965253949165344
786000000.0 -0.08864310383796692 -0.12008488923311234
792750016.0 -0.08872663229703903 -0.12034998834133148
799500032.0 -0.08916131407022476 -0.12029142677783966
806249984.0 -0.08986295014619827 -0.12021242082118988
813000000.0 -0.09083818644285202 -0.12002679705619812
819750016.0 -0.09215468168258667 -0.11967553198337555
826499968.0 -0.09369254857301712 -0.11952173709869385
833249984.0 -0.09560209512710571 -0.11927058547735214
840000000.0 -0.09770378470420837 -0.11919309943914413
846750016.0 -0.09995686262845993 -0.11916650086641312
853500032.0 -0.10234531760215759 -0.11924877017736435
860249984.0 -0.10481220483779907 -0.11935320496559143
867000000.0 -0.10759086906909943 -0.1194983422756195
873750016.0 -0.11044933646917343 -0.11988585442304611
880499968.0 -0.1136702224612236 -0.12034064531326294
887249984.0 -0.11679290235042572 -0.12103569507598877
894000000.0 -0.12021273374557495 -0.12189505994319916
900750016.0 -0.12425554543733597 -0.12327441573143005
907500032.0 -0.12942741811275482 -0.12582014501094818
914249984.0 -0.13208076357841492 -0.12610656023025513
921000000.0 -0.13415853679180145 -0.12774544954299927
927750016.0 -0.1376541256904602 -0.12970764935016632
934499968.0 -0.1407449096441269 -0.13195429742336273
941249984.0 -0.1440759301185608 -0.1343948245048523
948000000.0 -0.14948517084121704 -0.13703736662864685
954750016.0 -0.15047398209571838 -0.14010018110275269
961500032.0 -0.15241782367229462 -0.14204883575439453
968249984.0 -0.15487056970596313 -0.14493019878864288
975000000.0 -0.15716293454170227 -0.14789478480815887
981750016.0 -0.15915456414222717 -0.15102985501289368
988499968.0 -0.16067588329315186 -0.15443512797355652
995249984.0 -0.16177307069301605 -0.1581452339887619
1002000000.0 -0.16273659467697144 -0.16131797432899475
1008750016.0 -0.1637510061264038 -0.16434353590011597
1015500032.0 -0.16425365209579468 -0.16735942661762238
1022249984.0 -0.16438281536102295 -0.17020295560359955
1029000000.0 -0.16442935168743134 -0.1731613129377365
1035750016.0 -0.1641542911529541 -0.17578215897083282
1042499968.0 -0.16393333673477173 -0.1782882809638977
1049249984.0 -0.16377124190330505 -0.18029241263866425
1056000000.0 -0.16328881680965424 -0.18208466470241547
1062750016.0 -0.16271302103996277 -0.18386802077293396
1069500032.0 -0.16208991408348083 -0.18546703457832336
1076249984.0 -0.1615941822528839 -0.18677105009555817
1083000064.0 -0.16067665815353394 -0.18795034289360046
1089750016.0 -0.16003400087356567 -0.18882305920124054
1096499968.0 -0.15934619307518005 -0.18940973281860352
1103250048.0 -0.15886546671390533 -0.18986624479293823
1110000000.0 -0.1583154797554016 -0.18976826965808868
1116749952.0 -0.15801239013671875 -0.18971754610538483
1123500032.0 -0.15791451930999756 -0.18919286131858826
1130249984.0 -0.15821103751659393 -0.18876662850379944
1136999936.0 -0.15879788994789124 -0.18809077143669128
1143750016.0 -0.15974120795726776 -0.18740811944007874
1150499968.0 -0.16065767407417297 -0.18669047951698303
1157250048.0 -0.16166670620441437 -0.18591758608818054
1164000000.0 -0.16306710243225098 -0.1849832385778427
1170749952.0 -0.1645304560661316 -0.1839715540409088
1177500032.0 -0.16589096188545227 -0.18312384188175201
1184249984.0 -0.16784779727458954 -0.1823173463344574
1191000064.0 -0.1701984405517578 -0.18132652342319489
1197750016.0 -0.17271237075328827 -0.1803417205810547
1204499968.0 -0.17557448148727417 -0.17951001226902008
1211250048.0 -0.17866089940071106 -0.17872773110866547
1218000000.0 -0.1816539764404297 -0.17844586074352264
1224749952.0 -0.18508903682231903 -0.17831696569919586
1231500032.0 -0.18800868093967438 -0.1784914880990982
1238249984.0 -0.1912246197462082 -0.17903292179107666
1244999936.0 -0.19458544254302979 -0.17939609289169312
1251750016.0 -0.19762012362480164 -0.17987872660160065
1258499968.0 -0.20068447291851044 -0.180576890707016
1265250048.0 -0.20387442409992218 -0.18111461400985718
1272000000.0 -0.2067076712846756 -0.18232324719429016
1278749952.0 -0.20967784523963928 -0.1834564059972763
1285500032.0 -0.21245521306991577 -0.18508291244506836
1292249984.0 -0.2150753140449524 -0.18664294481277466
1299000064.0 -0.21720536053180695 -0.18888194859027863
1305750016.0 -0.21946406364440918 -0.19089868664741516
1312499968.0 -0.2209959179162979 -0.193062886595726
1319250048.0 -0.2223341315984726 -0.19527176022529602
1326000000.0 -0.22333025932312012 -0.19757431745529175
1332749952.0 -0.22409549355506897 -0.19974297285079956
1339500032.0 -0.22472763061523438 -0.20158955454826355
1346249984.0 -0.22521209716796875 -0.20360791683197021
1352999936.0 -0.22581085562705994 -0.20542821288108826
1359750016.0 -0.22587107121944427 -0.2071009874343872
1366499968.0 -0.22552773356437683 -0.20912134647369385
1373250048.0 -0.22510752081871033 -0.21089327335357666
1380000000.0 -0.22461575269699097 -0.21254181861877441
1386749952.0 -0.22414003312587738 -0.2139500379562378
1393500032.0 -0.22359663248062134 -0.21540378034114838
1400249984.0 -0.22285789251327515 -0.2164755016565323
1407000064.0 -0.22176745533943176 -0.2172389030456543
1413750016.0 -0.22057676315307617 -0.217920184135437
1420499968.0 -0.21961252391338348 -0.21798881888389587
1427250048.0 -0.21852576732635498 -0.2179775983095169
1434000000.0 -0.21779252588748932 -0.21766726672649384
1440749952.0 -0.2168481945991516 -0.2173217535018921
1447500032.0 -0.21603085100650787 -0.21685796976089478
1454249984.0 -0.2154865860939026 -0.21650739014148712
1460999936.0 -0.21497412025928497 -0.21597570180892944
1467750016.0 -0.2148580551147461 -0.2150578647851944
1474499968.0 -0.2151370644569397 -0.21396243572235107
1481250048.0 -0.21545454859733582 -0.21299386024475098
1488000000.0 -0.21560513973236084 -0.21199041604995728
1494749952.0 -0.21638981997966766 -0.21015402674674988
1501500032.0 -0.2171415090560913 -0.2085902988910675
1508249984.0 -0.21846097707748413 -0.20707447826862335
1515000064.0 -0.21979443728923798 -0.20550677180290222
1521750016.0 -0.2216597944498062 -0.20390312373638153
1528499968.0 -0.22324320673942566 -0.20268195867538452
1535250048.0 -0.2252207249403 -0.20162077248096466
1542000000.0 -0.22738711535930634 -0.20032408833503723
1548749952.0 -0.22952783107757568 -0.19940949976444244
1555500032.0 -0.23187214136123657 -0.19845670461654663
1562249984.0 -0.23403498530387878 -0.1974688172340393
1568999936.0 -0.23658089339733124 -0.19639952480793
1575750016.0 -0.23897841572761536 -0.19581733644008636
1582499968.0 -0.24132493138313293 -0.19526153802871704
1589250048.0 -0.24355913698673248 -0.19467312097549438
1596000000.0 -0.24601151049137115 -0.19446000456809998
1602749952.0 -0.24867960810661316 -0.19467899203300476
1609500032.0 -0.2505066692829132 -0.19534258544445038
1616249984.0 -0.2523476779460907 -0.195905864238739
1623000064.0 -0.2540058195590973 -0.19654561579227448
1629750016.0 -0.2550711929798126 -0.1974346786737442
1636499968.0 -0.25615131855010986 -0.19829140603542328
1643250048.0 -0.2571398913860321 -0.19889694452285767
1650000000.0 -0.2579256594181061 -0.1995617151260376
1656749952.0 -0.2583671808242798 -0.20038564503192902
1663500032.0 -0.25859832763671875 -0.20125600695610046
1670249984.0 -0.2586841583251953 -0.20232564210891724
1676999936.0 -0.2583097219467163 -0.20318937301635742
1683750016.0 -0.25793108344078064 -0.20428422093391418
1690499968.0 -0.2573302090167999 -0.20504745841026306
1697250048.0 -0.2564755976200104 -0.2056542932987213
1704000000.0 -0.2556537985801697 -0.20625759661197662
1710749952.0 -0.25427934527397156 -0.20659653842449188
1717500032.0 -0.2532142996788025 -0.2068580836057663
1724249984.0 -0.25189024209976196 -0.20700842142105103
1731000064.0 -0.25026804208755493 -0.2068874090909958
1737750016.0 -0.24919240176677704 -0.2066604495048523
1744499968.0 -0.24797728657722473 -0.2059829831123352
1751250048.0 -0.24701029062271118 -0.20520733296871185
1758000000.0 -0.24614936113357544 -0.20468628406524658
1764749952.0 -0.2448771595954895 -0.2034163475036621
1771500032.0 -0.24386754631996155 -0.2022627741098404
1778249984.0 -0.24295824766159058 -0.20099279284477234
1784999936.0 -0.24206674098968506 -0.19959938526153564
1791750016.0 -0.24177509546279907 -0.19757133722305298
1798499968.0 -0.24146775901317596 -0.1958223581314087
1805250048.0 -0.24135294556617737 -0.19360515475273132
1812000000.0 -0.24148434400558472 -0.19149409234523773
1818749952.0 -0.24173128604888916 -0.18971852958202362
1825500032.0 -0.24207139015197754 -0.18733054399490356
1832249984.0 -0.24346978962421417 -0.18490725755691528
1839000064.0 -0.24460162222385406 -0.18280945718288422
1845750016.0 -0.24595634639263153 -0.18061676621437073
1852499968.0 -0.24711966514587402 -0.1786646693944931
1859250048.0 -0.24830980598926544 -0.17697517573833466
1866000000.0 -0.24987086653709412 -0.17529137432575226
1872749952.0 -0.25186216831207275 -0.17328572273254395
1879500032.0 -0.2539573609828949 -0.17125359177589417
1886249984.0 -0.2561397850513458 -0.16915664076805115
1892999936.0 -0.25837641954421997 -0.16731010377407074
1899750016.0 -0.2607147693634033 -0.1657886505126953
1906499968.0 -0.2626715898513794 -0.16527023911476135
1913250048.0 -0.26461729407310486 -0.1645856350660324
1920000000.0 -0.26627835631370544 -0.16434615850448608
1926749952.0 -0.2674456238746643 -0.164622962474823
1933500032.0 -0.26895999908447266 -0.16448888182640076
1940249984.0 -0.2704693078994751 -0.16387063264846802
1947000064.0 -0.2722052037715912 -0.16289974749088287
1953750016.0 -0.273138165473938 -0.16272678971290588
1960499968.0 -0.27359893918037415 -0.16289262473583221
1967250048.0 -0.2743324637413025 -0.16308563947677612
1974000000.0 -0.27456608414649963 -0.16379587352275848
1980749952.0 -0.2747301757335663 -0.16442088782787323
1987500032.0 -0.27480125427246094 -0.1652154177427292
1994249984.0 -0.2741764485836029 -0.16590239107608795
2000999936.0 -0.27384477853775024 -0.1664576381444931
2007750016.0 -0.2730061709880829 -0.1671225130558014
2014499968.0 -0.27193519473075867 -0.16802024841308594
2021250048.0 -0.27009060978889465 -0.168338343501091
2028000000.0 -0.2688349485397339 -0.16846615076065063
2034749952.0 -0.2672868072986603 -0.16832280158996582
2041500032.0 -0.2658097445964813 -0.16814781725406647
2048249984.0 -0.2640303075313568 -0.16820895671844482
2055000064.0 -0.262310266494751 -0.16807298362255096
2061750016.0 -0.2606603801250458 -0.16750341653823853
2068499968.0 -0.25910311937332153 -0.16699372231960297
2075250048.0 -0.2572754919528961 -0.16607972979545593
2082000000.0 -0.25521141290664673 -0.16508273780345917
2088749952.0 -0.2534555196762085 -0.1641477644443512
2095500032.0 -0.2520003914833069 -0.16259709000587463
2102249984.0 -0.25107312202453613 -0.16086898744106293
2108999936.0 -0.2500191330909729 -0.1587950587272644
2115750016.0 -0.24946577847003937 -0.15641185641288757
2122499968.0 -0.2488427609205246 -0.15423136949539185
2129250048.0 -0.24870418012142181 -0.15217536687850952
2136000000.0 -0.24880129098892212 -0.14966411888599396
2142749952.0 -0.2486789971590042 -0.14738906919956207
2149499904.0 -0.24887892603874207 -0.14482396841049194
2156250112.0 -0.24920617043972015 -0.14294105768203735
2163000064.0 -0.25005781650543213 -0.14049983024597168
2169750016.0 -0.2512058615684509 -0.13739177584648132
2176499968.0 -0.2524968981742859 -0.13482657074928284
2183249920.0 -0.25396454334259033 -0.13236285746097565
2190000128.0 -0.255900502204895 -0.12996125221252441
2196750080.0 -0.25791987776756287 -0.1273762285709381
2203500032.0 -0.2598768472671509 -0.12539365887641907
2210249984.0 -0.2623748183250427 -0.12339387834072113
2216999936.0 -0.2644682824611664 -0.12154807895421982
2223749888.0 -0.2669864892959595 -0.11991600692272186
2230500096.0 -0.26917576789855957 -0.11852120608091354
2237250048.0 -0.27194997668266296 -0.1173972561955452
2244000000.0 -0.27402612566947937 -0.1163964569568634
2250749952.0 -0.27616533637046814 -0.11547631025314331
2257499904.0 -0.27846279740333557 -0.11480744183063507
2264250112.0 -0.280579537153244 -0.11430555582046509
2271000064.0 -0.28215688467025757 -0.1138559952378273
2277750016.0 -0.2837480902671814 -0.11408797651529312
2284499968.0 -0.28513801097869873 -0.11423812061548233
2291249920.0 -0.28652065992355347 -0.11466366052627563
2297999872.0 -0.287642240524292 -0.11495137214660645
2304750080.0 -0.28841227293014526 -0.11559170484542847
2311500032.0 -0.2884078919887543 -0.11610782891511917
2318249984.0 -0.2888389527797699 -0.11627957224845886
2324999936.0 -0.2894074320793152 -0.11636704951524734
2331749888.0 -0.2896340787410736 -0.11642195284366608
2338500096.0 -0.2895283102989197 -0.11671487987041473
2345250048.0 -0.28896650671958923 -0.11676018685102463
2352000000.0 -0.2887754440307617 -0.11645343154668808
2358749952.0 -0.28841111063957214 -0.11610954254865646
2365499904.0 -0.2875891625881195 -0.11588642746210098
2372250112.0 -0.2868152856826782 -0.11569622159004211
2379000064.0 -0.2858426570892334 -0.1156238466501236
2385750016.0 -0.2849217355251312 -0.11464078724384308
2392499968.0 -0.2838008403778076 -0.1135786920785904
2399249920.0 -0.28297775983810425 -0.11191069334745407
2406000128.0 -0.2825210690498352 -0.10986994206905365
2412750080.0 -0.2820510268211365 -0.10732884705066681
2419500032.0 -0.2817130982875824 -0.10436104983091354
2426249984.0 -0.2822032570838928 -0.10106117278337479
2432999936.0 -0.2826887369155884 -0.09666953980922699
2439749888.0 -0.2829294800758362 -0.09258709102869034
2446500096.0 -0.2835925221443176 -0.08898536115884781
2453250048.0 -0.28417783975601196 -0.08515308052301407
2460000000.0 -0.2851996421813965 -0.08114723861217499
2466749952.0 -0.28667840361595154 -0.07693185657262802
2473499904.0 -0.2879319190979004 -0.07195629179477692
2480250112.0 -0.2896023392677307 -0.06720220297574997
2487000064.0 -0.29160574078559875 -0.06235222518444061
2493750016.0 -0.2938680350780487 -0.05778831988573074
2500499968.0 -0.29652225971221924 -0.05253820866346359
2507249920.0 -0.2997455298900604 -0.04739841818809509
2513999872.0 -0.3025611639022827 -0.04245927184820175
2520750080.0 -0.3054252862930298 -0.03807436674833298
2527500032.0 -0.308480829000473 -0.034018538892269135
2534249984.0 -0.31143808364868164 -0.030565086752176285
2540999936.0 -0.3143501579761505 -0.025696968659758568
2547749888.0 -0.3179469108581543 -0.02115761488676071
2554500096.0 -0.32113659381866455 -0.01701868325471878
2561250048.0 -0.32436493039131165 -0.013064131140708923
2568000000.0 -0.32728704810142517 -0.009729862213134766
2574749952.0 -0.33050432801246643 -0.006518378853797913
2581499904.0 -0.33340883255004883 -0.0036651641130447388
2588250112.0 -0.3360615074634552 -0.0006379634141921997
2595000064.0 -0.3388536870479584 0.0021360963582992554
2601750016.0 -0.34122633934020996 0.0038616880774497986
2608499968.0 -0.3429502844810486 0.005251593887805939
2615249920.0 -0.3452073931694031 0.0063437726348638535
2622000128.0 -0.34668079018592834 0.00818790215998888
2628750080.0 -0.34823882579803467 0.009611941874027252
2635500032.0 -0.34934893250465393 0.0104900524020195
2642249984.0 -0.3498927354812622 0.01100015640258789
2648999936.0 -0.3502982258796692 0.011287525296211243
2655749888.0 -0.35026800632476807 0.011426389217376709
2662500096.0 -0.3501240015029907 0.012650087475776672
2669250048.0 -0.35004958510398865 0.013277798891067505
2676000000.0 -0.3495422303676605 0.013890057802200317
2682749952.0 -0.34871023893356323 0.014806658029556274
2689499904.0 -0.34763818979263306 0.015860334038734436
2696250112.0 -0.3464767634868622 0.017661791294813156
2703000064.0 -0.34536293148994446 0.019818510860204697
2709750016.0 -0.3444514274597168 0.022310107946395874
2716499968.0 -0.34290173649787903 0.025079987943172455
2723249920.0 -0.34138545393943787 0.02797694504261017
2729999872.0 -0.34030014276504517 0.0313989520072937
2736750080.0 -0.3393523097038269 0.03553755581378937
2743500032.0 -0.33832648396492004 0.03931991755962372
2750249984.0 -0.3369138836860657 0.0435786247253418
2756999936.0 -0.3356705904006958 0.048294469714164734
2763749888.0 -0.33448442816734314 0.052660614252090454
2770500096.0 -0.33395326137542725 0.05753684043884277
2777250048.0 -0.333026647567749 0.06287156045436859
