! S1P to S2P converted file from C:\Users\hsaether\OneDrive\Source\repos\Spar\Data\dummy.s1p
! Spar Program version 0.1
# HZ S RI R 50
300000000 -9.900798e-02  1.279186e-01 -7.803863e-01 -6.040128e-01 -7.803863e-01 -6.040128e-01 -9.900798e-02  1.279186e-01
306750016 -9.639930e-02  1.198078e-01 -7.698446e-01 -6.194292e-01 -7.698446e-01 -6.194292e-01 -9.639930e-02  1.198078e-01
313500000 -9.355287e-02  1.130952e-01 -7.621938e-01 -6.304903e-01 -7.621938e-01 -6.304903e-01 -9.355287e-02  1.130952e-01
320249984 -9.084363e-02  1.064443e-01 -7.531625e-01 -6.427778e-01 -7.531625e-01 -6.427778e-01 -9.084363e-02  1.064443e-01
327000000 -8.815755e-02  9.994996e-02 -7.432727e-01 -6.555791e-01 -7.432727e-01 -6.555791e-01 -8.815755e-02  9.994996e-02
333750016 -8.560243e-02  9.357543e-02 -7.318835e-01 -6.695241e-01 -7.318835e-01 -6.695241e-01 -8.560243e-02  9.357543e-02
340500000 -8.297423e-02  8.738890e-02 -7.199022e-01 -6.835344e-01 -7.199022e-01 -6.835344e-01 -8.297423e-02  8.738890e-02
347249984 -8.044102e-02  8.124143e-02 -7.059392e-01 -6.989842e-01 -7.059392e-01 -6.989842e-01 -8.044102e-02  8.124143e-02
354000000 -7.798082e-02  7.544629e-02 -6.912257e-01 -7.144466e-01 -6.912257e-01 -7.144466e-01 -7.798082e-02  7.544629e-02
360750016 -7.553873e-02  6.964207e-02 -6.742410e-01 -7.313296e-01 -6.742410e-01 -7.313296e-01 -7.553873e-02  6.964207e-02
367500000 -7.302734e-02  6.412783e-02 -6.567139e-01 -7.478512e-01 -6.567139e-01 -7.478512e-01 -7.302734e-02  6.412783e-02
374249984 -7.067409e-02  5.878881e-02 -6.367940e-01 -7.655341e-01 -6.367940e-01 -7.655341e-01 -7.067409e-02  5.878881e-02
381000000 -6.827177e-02  5.363790e-02 -6.154587e-01 -7.833725e-01 -6.154587e-01 -7.833725e-01 -6.827177e-02  5.363790e-02
387750016 -6.585941e-02  4.873474e-02 -5.928336e-01 -8.011466e-01 -5.928336e-01 -8.011466e-01 -6.585941e-02  4.873474e-02
394500000 -6.350876e-02  4.416573e-02 -5.692292e-01 -8.185317e-01 -5.692292e-01 -8.185317e-01 -6.350876e-02  4.416573e-02
401249984 -6.118590e-02  3.986161e-02 -5.444046e-01 -8.356381e-01 -5.444046e-01 -8.356381e-01 -6.118590e-02  3.986161e-02
408000000 -5.908099e-02  3.578693e-02 -5.168554e-01 -8.532815e-01 -5.168554e-01 -8.532815e-01 -5.908099e-02  3.578693e-02
414750016 -5.703427e-02  3.195652e-02 -4.877594e-01 -8.705267e-01 -4.877594e-01 -8.705267e-01 -5.703427e-02  3.195652e-02
421500000 -5.526199e-02  2.849742e-02 -4.574399e-01 -8.870641e-01 -4.574399e-01 -8.870641e-01 -5.526199e-02  2.849742e-02
428249984 -5.355421e-02  2.515476e-02 -4.243987e-01 -9.035402e-01 -4.243987e-01 -9.035402e-01 -5.355421e-02  2.515476e-02
435000000 -5.199379e-02  2.212103e-02 -3.908700e-01 -9.187099e-01 -3.908700e-01 -9.187099e-01 -5.199379e-02  2.212103e-02
441750016 -5.072833e-02  1.932566e-02 -3.554798e-01 -9.331063e-01 -3.554798e-01 -9.331063e-01 -5.072833e-02  1.932566e-02
448500000 -4.966782e-02  1.662680e-02 -3.170093e-01 -9.469751e-01 -3.170093e-01 -9.469751e-01 -4.966782e-02  1.662680e-02
455249984 -4.879046e-02  1.410888e-02 -2.774330e-01 -9.594016e-01 -2.774330e-01 -9.594016e-01 -4.879046e-02  1.410888e-02
462000000 -4.813446e-02  1.172521e-02 -2.363817e-01 -9.703965e-01 -2.363817e-01 -9.703965e-01 -4.813446e-02  1.172521e-02
468750016 -4.769992e-02  9.475932e-03 -1.946190e-01 -9.796726e-01 -1.946190e-01 -9.796726e-01 -4.769992e-02  9.475932e-03
475500000 -4.757896e-02  7.369484e-03 -1.528869e-01 -9.870702e-01 -1.528869e-01 -9.870702e-01 -4.757896e-02  7.369484e-03
482249984 -4.767628e-02  5.429532e-03 -1.130216e-01 -9.924332e-01 -1.130216e-01 -9.924332e-01 -4.767628e-02  5.429532e-03
489000000 -4.800092e-02  3.543464e-03 -7.353510e-02 -9.961305e-01 -7.353510e-02 -9.961305e-01 -4.800092e-02  3.543464e-03
495750016 -4.861414e-02  1.609620e-03 -3.305281e-02 -9.982693e-01 -3.305281e-02 -9.982693e-01 -4.861414e-02  1.609620e-03
502500000 -4.949560e-02 -2.215225e-04  4.470070e-03 -9.987643e-01  4.470070e-03 -9.987643e-01 -4.949560e-02 -2.215225e-04
509249984 -5.056844e-02 -2.087470e-03  4.119211e-02 -9.978686e-01  4.119211e-02 -9.978686e-01 -5.056844e-02 -2.087470e-03
516000000 -5.189489e-02 -4.026808e-03  7.725804e-02 -9.956515e-01  7.725804e-02 -9.956515e-01 -5.189489e-02 -4.026808e-03
522750016 -5.338186e-02 -5.990656e-03  1.113616e-01 -9.923271e-01  1.113616e-01 -9.923271e-01 -5.338186e-02 -5.990656e-03
529500000 -5.516913e-02 -8.107044e-03  1.451613e-01 -9.878354e-01  1.451613e-01 -9.878354e-01 -5.516913e-02 -8.107044e-03
536249984 -5.706021e-02 -1.032128e-02  1.776961e-01 -9.823755e-01  1.776961e-01 -9.823755e-01 -5.706021e-02 -1.032128e-02
543000000 -5.913047e-02 -1.260480e-02  2.081035e-01 -9.762365e-01  2.081035e-01 -9.762365e-01 -5.913047e-02 -1.260480e-02
549750016 -6.132020e-02 -1.507133e-02  2.382012e-01 -9.691609e-01  2.382012e-01 -9.691609e-01 -6.132020e-02 -1.507133e-02
556499968 -6.353337e-02 -1.757456e-02  2.660273e-01 -9.617090e-01  2.660273e-01 -9.617090e-01 -6.353337e-02 -1.757456e-02
563249984 -6.595880e-02 -2.037662e-02  2.944613e-01 -9.531667e-01  2.944613e-01 -9.531667e-01 -6.595880e-02 -2.037662e-02
570000000 -6.849019e-02 -2.316969e-02  3.196135e-01 -9.447854e-01  3.196135e-01 -9.447854e-01 -6.849019e-02 -2.316969e-02
576750016 -7.101911e-02 -2.623006e-02  3.454683e-01 -9.353715e-01  3.454683e-01 -9.353715e-01 -7.101911e-02 -2.623006e-02
583500032 -7.359619e-02 -2.955668e-02  3.715013e-01 -9.250388e-01  3.715013e-01 -9.250388e-01 -7.359619e-02 -2.955668e-02
590249984 -7.604603e-02 -3.299093e-02  3.966201e-01 -9.142325e-01  3.966201e-01 -9.142325e-01 -7.604603e-02 -3.299093e-02
597000000 -7.852323e-02 -3.669491e-02  4.217729e-01 -9.025493e-01  4.217729e-01 -9.025493e-01 -7.852323e-02 -3.669491e-02
603750016 -8.088709e-02 -4.044330e-02  4.453789e-01 -8.907633e-01  4.453789e-01 -8.907633e-01 -8.088709e-02 -4.044330e-02
610499968 -8.307185e-02 -4.440161e-02  4.692908e-01 -8.780055e-01  4.692908e-01 -8.780055e-01 -8.307185e-02 -4.440161e-02
617249984 -8.504013e-02 -4.848567e-02  4.929229e-01 -8.645487e-01  4.929229e-01 -8.645487e-01 -8.504013e-02 -4.848567e-02
624000000 -8.689671e-02 -5.255613e-02  5.148443e-01 -8.512474e-01  5.148443e-01 -8.512474e-01 -8.689671e-02 -5.255613e-02
630750016 -8.867262e-02 -5.674302e-02  5.360083e-01 -8.376231e-01  5.360083e-01 -8.376231e-01 -8.867262e-02 -5.674302e-02
637500032 -9.005780e-02 -6.093012e-02  5.570417e-01 -8.233357e-01  5.570417e-01 -8.233357e-01 -9.005780e-02 -6.093012e-02
644249984 -9.133087e-02 -6.512238e-02  5.769013e-01 -8.090752e-01  5.769013e-01 -8.090752e-01 -9.133087e-02 -6.512238e-02
651000000 -9.238992e-02 -6.931276e-02  5.960964e-01 -7.945621e-01  5.960964e-01 -7.945621e-01 -9.238992e-02 -6.931276e-02
657750016 -9.337932e-02 -7.345990e-02  6.139126e-01 -7.803815e-01  6.139126e-01 -7.803815e-01 -9.337932e-02 -7.345990e-02
664499968 -9.418148e-02 -7.754058e-02  6.308589e-01 -7.662469e-01  6.308589e-01 -7.662469e-01 -9.418148e-02 -7.754058e-02
671249984 -9.461570e-02 -8.166289e-02  6.482643e-01 -7.510875e-01  6.482643e-01 -7.510875e-01 -9.461570e-02 -8.166289e-02
678000000 -9.493817e-02 -8.559939e-02  6.641409e-01 -7.365978e-01  6.641409e-01 -7.365978e-01 -9.493817e-02 -8.559939e-02
684750016 -9.497406e-02 -8.955130e-02  6.801605e-01 -7.213475e-01  6.801605e-01 -7.213475e-01 -9.497406e-02 -8.955130e-02
691500032 -9.499440e-02 -9.315761e-02  6.939455e-01 -7.076280e-01  6.939455e-01 -7.076280e-01 -9.499440e-02 -9.315761e-02
698249984 -9.475177e-02 -9.667045e-02  7.075854e-01 -6.935415e-01  7.075854e-01 -6.935415e-01 -9.475177e-02 -9.667045e-02
705000000 -9.429513e-02 -9.992202e-02  7.203912e-01 -6.798239e-01  7.203912e-01 -6.798239e-01 -9.429513e-02 -9.992202e-02
711750016 -9.376710e-02 -1.029823e-01  7.322086e-01 -6.666880e-01  7.322086e-01 -6.666880e-01 -9.376710e-02 -1.029823e-01
718499968 -9.312388e-02 -1.056582e-01  7.427262e-01 -6.546160e-01  7.427262e-01 -6.546160e-01 -9.312388e-02 -1.056582e-01
725249984 -9.247979e-02 -1.081393e-01  7.522561e-01 -6.433227e-01  7.522561e-01 -6.433227e-01 -9.247979e-02 -1.081393e-01
732000000 -9.193462e-02 -1.103068e-01  7.602182e-01 -6.335999e-01  7.602182e-01 -6.335999e-01 -9.193462e-02 -1.103068e-01
738750016 -9.120093e-02 -1.123086e-01  7.681154e-01 -6.237531e-01  7.681154e-01 -6.237531e-01 -9.120093e-02 -1.123086e-01
745500032 -9.063536e-02 -1.140577e-01  7.745569e-01 -6.154979e-01  7.745569e-01 -6.154979e-01 -9.063536e-02 -1.140577e-01
752249984 -9.002906e-02 -1.156737e-01  7.806280e-01 -6.075643e-01  7.806280e-01 -6.075643e-01 -9.002906e-02 -1.156737e-01
759000000 -8.963979e-02 -1.169513e-01  7.850175e-01 -6.016931e-01  7.850175e-01 -6.016931e-01 -8.963979e-02 -1.169513e-01
765750016 -8.927664e-02 -1.181060e-01  7.889429e-01 -5.963638e-01  7.889429e-01 -5.963638e-01 -8.927664e-02 -1.181060e-01
772499968 -8.891081e-02 -1.189397e-01  7.920688e-01 -5.920939e-01  7.920688e-01 -5.920939e-01 -8.891081e-02 -1.189397e-01
779249984 -8.861414e-02 -1.196525e-01  7.946554e-01 -5.885182e-01  7.946554e-01 -5.885182e-01 -8.861414e-02 -1.196525e-01
786000000 -8.864310e-02 -1.200849e-01  7.955329e-01 -5.872388e-01  7.955329e-01 -5.872388e-01 -8.864310e-02 -1.200849e-01
792750016 -8.872663e-02 -1.203500e-01  7.958552e-01 -5.867350e-01  7.958552e-01 -5.867350e-01 -8.872663e-02 -1.203500e-01
799500032 -8.916131e-02 -1.202914e-01  7.943197e-01 -5.887584e-01  7.943197e-01 -5.887584e-01 -8.916131e-02 -1.202914e-01
806249984 -8.986295e-02 -1.202124e-01  7.918742e-01 -5.919534e-01  7.918742e-01 -5.919534e-01 -8.986295e-02 -1.202124e-01
813000000 -9.083819e-02 -1.200268e-01  7.882984e-01 -5.965967e-01  7.882984e-01 -5.965967e-01 -9.083819e-02 -1.200268e-01
819750016 -9.215468e-02 -1.196755e-01  7.832245e-01 -6.031125e-01  7.832245e-01 -6.031125e-01 -9.215468e-02 -1.196755e-01
826499968 -9.369255e-02 -1.195217e-01  7.778846e-01 -6.097802e-01  7.778846e-01 -6.097802e-01 -9.369255e-02 -1.195217e-01
833249984 -9.560210e-02 -1.192706e-01  7.711065e-01 -6.180853e-01  7.711065e-01 -6.180853e-01 -9.560210e-02 -1.192706e-01
840000000 -9.770378e-02 -1.191931e-01  7.641375e-01 -6.263712e-01  7.641375e-01 -6.263712e-01 -9.770378e-02 -1.191931e-01
846750016 -9.995686e-02 -1.191665e-01  7.568333e-01 -6.348318e-01  7.568333e-01 -6.348318e-01 -9.995686e-02 -1.191665e-01
853500032 -1.023453e-01 -1.192488e-01  7.494128e-01 -6.431839e-01  7.494128e-01 -6.431839e-01 -1.023453e-01 -1.192488e-01
860249984 -1.048122e-01 -1.193532e-01  7.418560e-01 -6.514744e-01  7.418560e-01 -6.514744e-01 -1.048122e-01 -1.193532e-01
867000000 -1.075909e-01 -1.194983e-01  7.334927e-01 -6.604035e-01  7.334927e-01 -6.604035e-01 -1.075909e-01 -1.194983e-01
873750016 -1.104493e-01 -1.198859e-01  7.256221e-01 -6.685065e-01  7.256221e-01 -6.685065e-01 -1.104493e-01 -1.198859e-01
880499968 -1.136702e-01 -1.203406e-01  7.169378e-01 -6.771982e-01  7.169378e-01 -6.771982e-01 -1.136702e-01 -1.203406e-01
887249984 -1.167929e-01 -1.210357e-01  7.093549e-01 -6.844891e-01  7.093549e-01 -6.844891e-01 -1.167929e-01 -1.210357e-01
894000000 -1.202127e-01 -1.218951e-01  7.014912e-01 -6.918096e-01  7.014912e-01 -6.918096e-01 -1.202127e-01 -1.218951e-01
900750016 -1.242555e-01 -1.232744e-01  6.934261e-01 -6.989450e-01  6.934261e-01 -6.989450e-01 -1.242555e-01 -1.232744e-01
907500032 -1.294274e-01 -1.258201e-01  6.855944e-01 -7.052504e-01  6.855944e-01 -7.052504e-01 -1.294274e-01 -1.258201e-01
914249984 -1.320808e-01 -1.261066e-01  6.789481e-01 -7.111127e-01  6.789481e-01 -7.111127e-01 -1.320808e-01 -1.261066e-01
921000000 -1.341585e-01 -1.277454e-01  6.776499e-01 -7.116693e-01  6.776499e-01 -7.116693e-01 -1.341585e-01 -1.277454e-01
927750016 -1.376541e-01 -1.297076e-01  6.734095e-01 -7.146656e-01  6.734095e-01 -7.146656e-01 -1.376541e-01 -1.297076e-01
934499968 -1.407449e-01 -1.319543e-01  6.711080e-01 -7.158163e-01  6.711080e-01 -7.158163e-01 -1.407449e-01 -1.319543e-01
941249984 -1.440759e-01 -1.343948e-01  6.687412e-01 -7.169138e-01  6.687412e-01 -7.169138e-01 -1.440759e-01 -1.343948e-01
948000000 -1.494852e-01 -1.370374e-01  6.617085e-01 -7.218149e-01  6.617085e-01 -7.218149e-01 -1.494852e-01 -1.370374e-01
954750016 -1.504740e-01 -1.401002e-01  6.668706e-01 -7.162494e-01  6.668706e-01 -7.162494e-01 -1.504740e-01 -1.401002e-01
961500032 -1.524178e-01 -1.420488e-01  6.668230e-01 -7.154984e-01  6.668230e-01 -7.154984e-01 -1.524178e-01 -1.420488e-01
968249984 -1.548706e-01 -1.449302e-01  6.677388e-01 -7.135372e-01  6.677388e-01 -7.135372e-01 -1.548706e-01 -1.449302e-01
975000000 -1.571629e-01 -1.478948e-01  6.691588e-01 -7.110931e-01  6.691588e-01 -7.110931e-01 -1.571629e-01 -1.478948e-01
981750016 -1.591546e-01 -1.510299e-01  6.715763e-01 -7.077041e-01  6.715763e-01 -7.077041e-01 -1.591546e-01 -1.510299e-01
988499968 -1.606759e-01 -1.544351e-01  6.755388e-01 -7.028374e-01  6.755388e-01 -7.028374e-01 -1.606759e-01 -1.544351e-01
995249984 -1.617731e-01 -1.581452e-01  6.809197e-01 -6.965399e-01  6.809197e-01 -6.965399e-01 -1.617731e-01 -1.581452e-01
1002000000 -1.627366e-01 -1.613180e-01  6.852728e-01 -6.912991e-01  6.852728e-01 -6.912991e-01 -1.627366e-01 -1.613180e-01
1008750016 -1.637510e-01 -1.643435e-01  6.890553e-01 -6.865709e-01  6.890553e-01 -6.865709e-01 -1.637510e-01 -1.643435e-01
1015500032 -1.642537e-01 -1.673594e-01  6.937980e-01 -6.809228e-01  6.937980e-01 -6.809228e-01 -1.642537e-01 -1.673594e-01
1022249984 -1.643828e-01 -1.702030e-01  6.988711e-01 -6.749730e-01  6.988711e-01 -6.749730e-01 -1.643828e-01 -1.702030e-01
1029000000 -1.644294e-01 -1.731613e-01  7.041757e-01 -6.686664e-01  7.041757e-01 -6.686664e-01 -1.644294e-01 -1.731613e-01
1035750016 -1.641543e-01 -1.757822e-01  7.094129e-01 -6.624857e-01  7.094129e-01 -6.624857e-01 -1.641543e-01 -1.757822e-01
1042499968 -1.639333e-01 -1.782883e-01  7.142030e-01 -6.566987e-01  7.142030e-01 -6.566987e-01 -1.639333e-01 -1.782883e-01
1049249984 -1.637712e-01 -1.802924e-01  7.179150e-01 -6.521286e-01  7.179150e-01 -6.521286e-01 -1.637712e-01 -1.802924e-01
1056000000 -1.632888e-01 -1.820847e-01  7.218769e-01 -6.473605e-01  7.218769e-01 -6.473605e-01 -1.632888e-01 -1.820847e-01
1062750016 -1.627130e-01 -1.838680e-01  7.259512e-01 -6.424266e-01  7.259512e-01 -6.424266e-01 -1.627130e-01 -1.838680e-01
1069500032 -1.620899e-01 -1.854670e-01  7.297673e-01 -6.377841e-01  7.297673e-01 -6.377841e-01 -1.620899e-01 -1.854670e-01
1076249984 -1.615942e-01 -1.867711e-01  7.328114e-01 -6.340279e-01  7.328114e-01 -6.340279e-01 -1.615942e-01 -1.867711e-01
1083000064 -1.606767e-01 -1.879503e-01  7.364988e-01 -6.296246e-01  7.364988e-01 -6.296246e-01 -1.606767e-01 -1.879503e-01
1089750016 -1.600340e-01 -1.888231e-01  7.391289e-01 -6.264371e-01  7.391289e-01 -6.264371e-01 -1.600340e-01 -1.888231e-01
1096499968 -1.593462e-01 -1.894097e-01  7.414111e-01 -6.237326e-01  7.414111e-01 -6.237326e-01 -1.593462e-01 -1.894097e-01
1103250048 -1.588655e-01 -1.898662e-01  7.430677e-01 -6.217419e-01  7.430677e-01 -6.217419e-01 -1.588655e-01 -1.898662e-01
1110000000 -1.583155e-01 -1.897683e-01  7.440538e-01 -6.207320e-01  7.440538e-01 -6.207320e-01 -1.583155e-01 -1.897683e-01
1116749952 -1.580124e-01 -1.897175e-01  7.446026e-01 -6.201663e-01  7.446026e-01 -6.201663e-01 -1.580124e-01 -1.897175e-01
1123500032 -1.579145e-01 -1.891929e-01  7.440374e-01 -6.210293e-01  7.440374e-01 -6.210293e-01 -1.579145e-01 -1.891929e-01
1130249984 -1.582110e-01 -1.887666e-01  7.427999e-01 -6.225631e-01  7.427999e-01 -6.225631e-01 -1.582110e-01 -1.887666e-01
1136999936 -1.587979e-01 -1.880908e-01  7.405866e-01 -6.252492e-01  7.405866e-01 -6.252492e-01 -1.587979e-01 -1.880908e-01
1143750016 -1.597412e-01 -1.874081e-01  7.376128e-01 -6.287196e-01  7.376128e-01 -6.287196e-01 -1.597412e-01 -1.874081e-01
1150499968 -1.606577e-01 -1.866905e-01  7.346260e-01 -6.321870e-01  7.346260e-01 -6.321870e-01 -1.606577e-01 -1.866905e-01
1157250048 -1.616667e-01 -1.859176e-01  7.313456e-01 -6.359497e-01  7.313456e-01 -6.359497e-01 -1.616667e-01 -1.859176e-01
1164000000 -1.630671e-01 -1.849832e-01  7.269806e-01 -6.408506e-01  7.269806e-01 -6.408506e-01 -1.630671e-01 -1.849832e-01
1170749952 -1.645305e-01 -1.839716e-01  7.223338e-01 -6.460016e-01  7.223338e-01 -6.460016e-01 -1.645305e-01 -1.839716e-01
1177500032 -1.658910e-01 -1.831238e-01  7.181374e-01 -6.505571e-01  7.181374e-01 -6.505571e-01 -1.658910e-01 -1.831238e-01
1184249984 -1.678478e-01 -1.823173e-01  7.127496e-01 -6.561825e-01  7.127496e-01 -6.561825e-01 -1.678478e-01 -1.823173e-01
1191000064 -1.701984e-01 -1.813265e-01  7.062192e-01 -6.628783e-01  7.062192e-01 -6.628783e-01 -1.701984e-01 -1.813265e-01
1197750016 -1.727124e-01 -1.803417e-01  6.993399e-01 -6.697544e-01  6.993399e-01 -6.697544e-01 -1.727124e-01 -1.803417e-01
1204499968 -1.755745e-01 -1.795100e-01  6.919958e-01 -6.768246e-01  6.919958e-01 -6.768246e-01 -1.755745e-01 -1.795100e-01
1211250048 -1.786609e-01 -1.787277e-01  6.842831e-01 -6.840273e-01  6.842831e-01 -6.840273e-01 -1.786609e-01 -1.787277e-01
1218000000 -1.816540e-01 -1.784459e-01  6.776790e-01 -6.898624e-01  6.776790e-01 -6.898624e-01 -1.816540e-01 -1.784459e-01
1224749952 -1.850890e-01 -1.783170e-01  6.705032e-01 -6.959674e-01  6.705032e-01 -6.959674e-01 -1.850890e-01 -1.783170e-01
1231500032 -1.880087e-01 -1.784915e-01  6.649741e-01 -7.004306e-01  6.649741e-01 -7.004306e-01 -1.880087e-01 -1.784915e-01
1238249984 -1.912246e-01 -1.790329e-01  6.595872e-01 -7.045034e-01  6.595872e-01 -7.045034e-01 -1.912246e-01 -1.790329e-01
1244999936 -1.945854e-01 -1.793961e-01  6.536579e-01 -7.090027e-01  6.536579e-01 -7.090027e-01 -1.945854e-01 -1.793961e-01
1251750016 -1.976201e-01 -1.798787e-01  6.486524e-01 -7.126289e-01  6.486524e-01 -7.126289e-01 -1.976201e-01 -1.798787e-01
1258499968 -2.006845e-01 -1.805769e-01  6.440486e-01 -7.157647e-01  6.440486e-01 -7.157647e-01 -2.006845e-01 -1.805769e-01
1265250048 -2.038744e-01 -1.811146e-01  6.389721e-01 -7.192687e-01  6.389721e-01 -7.192687e-01 -2.038744e-01 -1.811146e-01
1272000000 -2.067077e-01 -1.823232e-01  6.358645e-01 -7.209068e-01  6.358645e-01 -7.209068e-01 -2.067077e-01 -1.823232e-01
1278749952 -2.096778e-01 -1.834564e-01  6.324087e-01 -7.227989e-01  6.324087e-01 -7.227989e-01 -2.096778e-01 -1.834564e-01
1285500032 -2.124552e-01 -1.850829e-01  6.302497e-01 -7.234586e-01  6.302497e-01 -7.234586e-01 -2.124552e-01 -1.850829e-01
1292249984 -2.150753e-01 -1.866429e-01  6.282836e-01 -7.239936e-01  6.282836e-01 -7.239936e-01 -2.150753e-01 -1.866429e-01
1299000064 -2.172054e-01 -1.888819e-01  6.284220e-01 -7.226557e-01  6.284220e-01 -7.226557e-01 -2.172054e-01 -1.888819e-01
1305750016 -2.194641e-01 -1.908987e-01  6.279198e-01 -7.218794e-01  6.279198e-01 -7.218794e-01 -2.194641e-01 -1.908987e-01
1312499968 -2.209959e-01 -1.930629e-01  6.289442e-01 -7.199421e-01  6.289442e-01 -7.199421e-01 -2.209959e-01 -1.930629e-01
1319250048 -2.223341e-01 -1.952718e-01  6.303462e-01 -7.177048e-01  6.303462e-01 -7.177048e-01 -2.223341e-01 -1.952718e-01
1326000000 -2.233303e-01 -1.975743e-01  6.324562e-01 -7.149036e-01  6.324562e-01 -7.149036e-01 -2.233303e-01 -1.975743e-01
1332749952 -2.240955e-01 -1.997430e-01  6.346926e-01 -7.120739e-01  6.346926e-01 -7.120739e-01 -2.240955e-01 -1.997430e-01
1339500032 -2.247276e-01 -2.015896e-01  6.365899e-01 -7.096565e-01  6.365899e-01 -7.096565e-01 -2.247276e-01 -2.015896e-01
1346249984 -2.252121e-01 -2.036079e-01  6.389764e-01 -7.067761e-01  6.389764e-01 -7.067761e-01 -2.252121e-01 -2.036079e-01
1352999936 -2.258109e-01 -2.054282e-01  6.408114e-01 -7.043929e-01  6.408114e-01 -7.043929e-01 -2.258109e-01 -2.054282e-01
1359750016 -2.258711e-01 -2.071010e-01  6.433030e-01 -7.016072e-01  6.433030e-01 -7.016072e-01 -2.258711e-01 -2.071010e-01
1366499968 -2.255277e-01 -2.091213e-01  6.469743e-01 -6.977319e-01  6.469743e-01 -6.977319e-01 -2.255277e-01 -2.091213e-01
1373250048 -2.251075e-01 -2.108933e-01  6.503516e-01 -6.941854e-01  6.503516e-01 -6.941854e-01 -2.251075e-01 -2.108933e-01
1380000000 -2.246158e-01 -2.125418e-01  6.536267e-01 -6.907575e-01  6.536267e-01 -6.907575e-01 -2.246158e-01 -2.125418e-01
1386749952 -2.241400e-01 -2.139500e-01  6.564891e-01 -6.877563e-01  6.564891e-01 -6.877563e-01 -2.241400e-01 -2.139500e-01
