! S1P to S2P converted from file: C:\GitWork\Spar\Data\dummy.s1p
! Spar Program version 0.4
# HZ S MA R 50
 300000000     0.16175830  127.73958590    0.98683041   37.73958590    0.98683041   37.73958590    0.16175830  127.73958590
 306750016     0.15377498  128.82071081    0.98810589   38.82071081    0.98810589   38.82071081    0.15377498  128.82071081
 313500000     0.14677418  129.59771327    0.98917003   39.59771327    0.98917003   39.59771327    0.14677418  129.59771327
 320249984     0.13993909  130.47871653    0.99016011   40.47871653    0.99016011   40.47871653    0.13993909  130.47871653
 327000000     0.13327321  131.41283802    0.99107934   41.41283802    0.99107934   41.41283802    0.13327321  131.41283802
 333750016     0.12682326  132.45215112    0.99192533   42.45215112    0.99192533   42.45215112    0.12682326  132.45215112
 340500000     0.12050536  133.51560720    0.99271268   43.51560720    0.99271268   43.51560720    0.12050536  133.51560720
 347249984     0.11432816  134.71635975    0.99344304   44.71635975    0.99344304   44.71635975    0.11432816  134.71635975
 354000000     0.10850415  135.94640858    0.99409600   45.94640858    0.99409600   45.94640858    0.10850415  135.94640858
 360750016     0.10274297  137.32584465    0.99470794   47.32584465    0.99470794   47.32584465    0.10274297  137.32584465
 367500000     0.09718730  138.71251762    0.99526611   48.71251762    0.99526611   48.71251762    0.09718730  138.71251762
 374249984     0.09192905  140.24531128    0.99576556   50.24531128    0.99576556   50.24531128    0.09192905  140.24531128
 381000000     0.08682199  141.84495808    0.99622384   51.84495808    0.99622384   51.84495808    0.08682199  141.84495808
 387750016     0.08193008  143.49924677    0.99663808   53.49924677    0.99663808   53.49924677    0.08193008  143.49924677
 394500000     0.07735615  145.18419521    0.99700352   55.18419521    0.99700352   55.18419521    0.07735615  145.18419521
 401249984     0.07302508  146.91641356    0.99733010   56.91641356    0.99733010   56.91641356    0.07302508  146.91641356
 408000000     0.06907436  148.79559240    0.99761151   58.79559240    0.99761151   58.79559240    0.06907436  148.79559240
 414750016     0.06537681  150.73792552    0.99786065   60.73792552    0.99786065   60.73792552    0.06537681  150.73792552
 421500000     0.06217709  152.72081280    0.99806513   62.72081280    0.99806513   62.72081280    0.06217709  152.72081280
 428249984     0.05916769  154.84025298    0.99824806   64.84025298    0.99824806   64.84025298    0.05916769  154.84025298
 435000000     0.05650393  156.95241732    0.99840238   66.95241732    0.99840238   66.95241732    0.05650393  156.95241732
 441750016     0.05428485  159.14496649    0.99852549   69.14496649    0.99852549   69.14496649    0.05428485  159.14496649
 448500000     0.05237693  161.49152013    0.99862739   71.49152013    0.99862739   71.49152013    0.05237693  161.49152013
 455249984     0.05078946  163.87155850    0.99870938   73.87155850    0.99870938   73.87155850    0.05078946  163.87155850
 462000000     0.04954197  166.30977712    0.99877204   76.30977712    0.99877204   76.30977712    0.04954197  166.30977712
 468750016     0.04863204  168.76406478    0.99881676   78.76406478    0.99881676   78.76406478    0.04863204  168.76406478
 475500000     0.04814631  171.19544640    0.99884029   81.19544640    0.99884029   81.19544640    0.04814631  171.19544640
 482249984     0.04798445  173.50295940    0.99884808   83.50295940    0.99884808   83.50295940    0.04798445  173.50295940
 489000000     0.04813154  175.77804039    0.99884101   85.77804039    0.99884101   85.77804039    0.04813154  175.77804039
 495750016     0.04864078  178.10362288    0.99881634   88.10362288    0.99881634   88.10362288    0.04864078  178.10362288
 502500000     0.04949609 -179.74356868    0.99877432   90.25643132    0.99877432   90.25643132    0.04949609 -179.74356868
 509249984     0.05061151 -177.63616666    0.99871842   92.36383334    0.99871842   92.36383334    0.05061151 -177.63616666
 516000000     0.05205088 -175.56299840    0.99864443   94.43700160    0.99864443   94.43700160    0.05205088 -175.56299840
 522750016     0.05371695 -173.59690372    0.99855620   96.40309628    0.99855620   96.40309628    0.05371695 -173.59690372
 529500000     0.05576161 -171.64027764    0.99844411   98.35972236    0.99844411   98.35972236    0.05576161 -171.64027764
 536249984     0.05798618 -169.74697151    0.99831739  100.25302849    0.99831739  100.25302849    0.05798618 -169.74697151
 543000000     0.06045902 -167.96641980    0.99817068  102.03358020    0.99817068  102.03358020    0.06045902 -167.96641980
 549750016     0.06314517 -166.19150048    0.99800435  103.80849952    0.99800435  103.80849952    0.06314517 -166.19150048
 556499968     0.06591930 -164.53752475    0.99782496  105.46247525    0.99782496  105.46247525    0.06591930 -164.53752475
 563249984     0.06903455 -162.83253796    0.99761427  107.16746204    0.99761427  107.16746204    0.06903455 -162.83253796
 570000000     0.07230312 -161.30972671    0.99738270  108.69027329    0.99738270  108.69027329    0.07230312 -161.30972671
 576750016     0.07570819 -159.72889231    0.99713002  110.27110769    0.99713002  110.27110769    0.07570819 -159.72889231
 583500032     0.07930950 -158.11930260    0.99685004  111.88069740    0.99685004  111.88069740    0.07930950 -158.11930260
 590249984     0.08289391 -156.54742874    0.99655838  113.45257126    0.99655838  113.45257126    0.08289391 -156.54742874
 597000000     0.08667418 -154.95271279    0.99623671  115.04728721    0.99623671  115.04728721    0.08667418 -154.95271279
 603750016     0.09043441 -153.43508815    0.99590241  116.56491185    0.99590241  116.56491185    0.09043441 -153.43508815
 610499968     0.09419360 -151.87565481    0.99555390  118.12434519    0.99555390  118.12434519    0.09419360 -151.87565481
 617249984     0.09789119 -150.31035106    0.99519712  119.68964894    0.99519712  119.68964894    0.09789119 -150.31035106
 624000000     0.10155386 -148.83396630    0.99483004  121.16603370    0.99483004  121.16603370    0.10155386 -148.83396630
 630750016     0.10527395 -147.38417686    0.99444326  122.61582314    0.99444326  122.61582314    0.10527395 -147.38417686
 637500032     0.10873310 -145.91902053    0.99407098  124.08097947    0.99407098  124.08097947    0.10873310 -145.91902053
 644249984     0.11217064 -144.50968761    0.99368896  125.49031239    0.99368896  125.49031239    0.11217064 -144.50968761
 651000000     0.11549959 -143.12203842    0.99330753  126.87796158    0.99330753  126.87796158    0.11549959 -143.12203842
 657750016     0.11881100 -141.80848031    0.99291689  128.19151969    0.99291689  128.19151969    0.11881100 -141.80848031
 664499968     0.12199464 -140.53502331    0.99253076  129.46497669    0.99253076  129.46497669    0.12199464 -140.53502331
 671249984     0.12498383 -139.20249642    0.99215878  130.79750358    0.99215878  130.79750358    0.12498383 -139.20249642
 678000000     0.12783002 -137.96113593    0.99179609  132.03886407    0.99179609  132.03886407    0.12783002 -137.96113593
 684750016     0.13053546 -136.68330058    0.99144364  133.31669942    0.99144364  133.31669942    0.13053546 -136.68330058
 691500032     0.13304990 -135.55931712    0.99110934  134.44068288    0.99110934  134.44068288    0.13304990 -135.55931712
 698249984     0.13536275 -134.42572684    0.99079611  135.57427316    0.99079611  135.57427316    0.13536275 -134.42572684
 705000000     0.13738989 -133.34048265    0.99051705  136.65951735    0.99051705  136.65951735    0.13738989 -133.34048265
 711750016     0.13927536 -132.31837747    0.99025369  137.68162253    0.99025369  137.68162253    0.13927536 -132.31837747
 718499968     0.14083931 -131.39196003    0.99003247  138.60803997    0.99003247  138.60803997    0.14083931 -131.39196003
 725249984     0.14229064 -130.53676609    0.98982492  139.46323391    0.98982492  139.46323391    0.14229064 -130.53676609
 732000000     0.14359514 -129.80933975    0.98963652  140.19066025    0.98963652  140.19066025    0.14359514 -129.80933975
 738750016     0.14467491 -129.07855047    0.98947924  140.92144953    0.98947924  140.92144953    0.14467491 -129.07855047
 745500032     0.14568430 -128.47223914    0.98933113  141.52776086    0.98933113  141.52776086    0.14568430 -128.47223914
 752249984     0.14657979 -127.89369215    0.98919885  142.10630785    0.98919885  142.10630785    0.14657979 -127.89369215
 759000000     0.14735300 -127.46911395    0.98908397  142.53088605    0.98908397  142.53088605    0.14735300 -127.46911395
 765750016     0.14805187 -127.08572342    0.98897960  142.91427658    0.98897960  142.91427658    0.14805187 -127.08572342
 772499968     0.14849845 -126.77915576    0.98891264  143.22084424    0.98891264  143.22084424    0.14849845 -126.77915576
 779249984     0.14889323 -126.52348278    0.98885328  143.47651722    0.98885328  143.47651722    0.14889323 -126.52348278
 786000000     0.14925810 -126.43364364    0.98879827  143.56635636    0.98879827  143.56635636    0.14925810 -126.43364364
 792750016     0.14952102 -126.39906497    0.98875855  143.60093503    0.98875855  143.60093503    0.14952102 -126.39906497
 799500032     0.14973232 -126.54624472    0.98872657  143.45375528    0.98872657  143.45375528    0.14973232 -126.54624472
 806249984     0.15008789 -126.77938803    0.98867266  143.22061197    0.98867266  143.22061197    0.15008789 -126.77938803
 813000000     0.15052577 -127.11901472    0.98860609  142.88098528    0.98860609  142.88098528    0.15052577 -127.11901472
 819750016     0.15104542 -127.59763026    0.98852682  142.40236974    0.98852682  142.40236974    0.15104542 -127.59763026
 826499968     0.15186751 -128.09273675    0.98840086  141.90726325    0.98840086  141.90726325    0.15186751 -128.09273675
 833249984     0.15285690 -128.71414033    0.98824833  141.28585967    0.98824833  141.28585967    0.15285690 -128.71414033
 840000000     0.15412016 -129.34181856    0.98805211  140.65818144    0.98805211  140.65818144    0.15412016 -129.34181856
 846750016     0.15553787 -129.98992463    0.98782993  140.01007537    0.98782993  140.01007537    0.15553787 -129.98992463
 853500032     0.15714590 -130.63785960    0.98757540  139.36214040    0.98757540  139.36214040    0.15714590 -130.63785960
 860249984     0.15884202 -131.28857847    0.98730401  138.71142153    0.98730401  138.71142153    0.15884202 -131.28857847
 867000000     0.16079692 -131.99843196    0.98698751  138.00156804    0.98698751  138.00156804    0.16079692 -131.99843196
 873750016     0.16300820 -132.65398218    0.98662471  137.34601782    0.98662471  137.34601782    0.16300820 -132.65398218
 880499968     0.16553788 -133.36723987    0.98620343  136.63276013    0.98620343  136.63276013    0.16553788 -133.36723987
 887249984     0.16819697 -133.97796844    0.98575341  136.02203156    0.98575341  136.02203156    0.16819697 -133.97796844
 894000000     0.17120020 -134.60187717    0.98523626  135.39812283    0.98523626  135.39812283    0.17120020 -134.60187717
 900750016     0.17503149 -135.22710098    0.98456284  134.77289902    0.98456284  134.77289902    0.17503149 -135.22710098
 907500032     0.18050531 -135.80967577    0.98357401  134.19032423    0.98357401  134.19032423    0.18050531 -135.80967577
 914249984     0.18261488 -136.32553203    0.98318452  133.67446797    0.98318452  133.67446797    0.18261488 -136.32553203
 921000000     0.18524960 -136.40268740    0.98269150  133.59731260    0.98269150  133.59731260    0.18524960 -136.40268740
 927750016     0.18913681 -136.70243319    0.98195075  133.29756681    0.98195075  133.29756681    0.18913681 -136.70243319
 934499968     0.19292762 -136.84632231    0.98121299  133.15367769    0.98121299  133.15367769    0.19292762 -136.84632231
 941249984     0.19702752 -136.99110024    0.98039796  133.00889976    0.98039796  133.00889976    0.19702752 -136.99110024
 948000000     0.20279314 -137.48761739    0.97922160  132.51238261    0.97922160  132.51238261    0.20279314 -137.48761739
 954750016     0.20559786 -137.04465076    0.97863656  132.95534924    0.97863656  132.95534924    0.20559786 -137.04465076
 961500032     0.20834842 -137.01671008    0.97805467  132.98328992    0.97805467  132.98328992    0.20834842 -137.01671008
 968249984     0.21210765 -136.89903692    0.97724631  133.10096308    0.97724631  133.10096308    0.21210765 -136.89903692
 975000000     0.21580791 -136.74020369    0.97643584  133.25979631    0.97643584  133.25979631    0.21580791 -136.74020369
 981750016     0.21940873 -136.50041426    0.97563303  133.49958574    0.97563303  133.49958574    0.21940873 -136.50041426
 988499968     0.22286083 -136.13459127    0.97485027  133.86540873    0.97485027  133.86540873    0.22286083 -136.13459127
 995249984     0.22623095 -135.64969969    0.97407369  134.35030031    0.97407369  134.35030031    0.22623095 -135.64969969
1002000000     0.22914338 -135.25082331    0.97339268  134.74917669    0.97339268  134.74917669    0.22914338 -135.25082331
1008750016     0.23199825 -134.89652550    0.97271620  135.10347450    0.97271620  135.10347450    0.23199825 -134.89652550
1015500032     0.23449614 -134.46340304    0.97211705  135.53659696    0.97211705  135.53659696    0.23449614 -134.46340304
1022249984     0.23662366 -134.00343687    0.97160138  135.99656313    0.97160138  135.99656313    0.23662366 -134.00343687
1029000000     0.23879249 -133.51834470    0.97107062  136.48165530    0.97107062  136.48165530    0.23879249 -133.51834470
1035750016     0.24051195 -133.04090414    0.97064618  136.95909586    0.97064618  136.95909586    0.24051195 -133.04090414
1042499968     0.24220002 -132.59805984    0.97022634  137.40194016    0.97022634  137.40194016    0.24220002 -132.59805984
1049249984     0.24357006 -132.25089580    0.96988331  137.74910420    0.96988331  137.74910420    0.24357006 -132.25089580
1056000000     0.24457731 -131.88493323    0.96962979  138.11506677    0.96962979  138.11506677    0.24457731 -131.88493323
1062750016     0.24552592 -131.50705006    0.96939003  138.49294994    0.96939003  138.49294994    0.24552592 -131.50705006
1069500032     0.24631517 -131.15200920    0.96918978  138.84799080    0.96918978  138.84799080    0.24631517 -131.15200920
1076249984     0.24697390 -130.86633666    0.96902213  139.13366334    0.96902213  139.13366334    0.24697390 -130.86633666
1083000064     0.24726973 -130.52676433    0.96894669  139.47323567    0.96894669  139.47323567    0.24726973 -130.52676433
1089750016     0.24751773 -130.28241651    0.96888336  139.71758349    0.96888336  139.71758349    0.24751773 -130.28241651
1096499968     0.24752223 -130.07315526    0.96888221  139.92684474    0.96888221  139.92684474    0.24752223 -130.07315526
1103250048     0.24756298 -129.92000031    0.96887180  140.07999969    0.96887180  140.07999969    0.24756298 -129.92000031
1110000000     0.24713516 -129.83678477    0.96898102  140.16321523    0.96898102  140.16321523    0.24713516 -129.83678477
1116749952     0.24690213 -129.79031722    0.96904042  140.20968278    0.96904042  140.20968278    0.24690213 -129.79031722
1123500032     0.24643647 -129.85090240    0.96915895  140.14909760    0.96915895  140.14909760    0.24643647 -129.85090240
1130249984     0.24629976 -129.96739423    0.96919370  140.03260577    0.96919370  140.03260577    0.24629976 -129.96739423
1136999936     0.24616033 -130.17313118    0.96922912  139.82686882    0.96922912  139.82686882    0.24616033 -130.17313118
1143750016     0.24624999 -130.44330452    0.96920635  139.55669548    0.96920635  139.55669548    0.24624999 -130.44330452
1150499968     0.24630108 -130.71384942    0.96919336  139.28615058    0.96919336  139.28615058    0.24630108 -130.71384942
1157250048     0.24637669 -131.00895354    0.96917415  138.99104646    0.96917415  138.99104646    0.24637669 -131.00895354
1164000000     0.24659618 -131.39693955    0.96911832  138.60306045    0.96911832  138.60306045    0.24659618 -131.39693955
1170749952     0.24681127 -131.80707850    0.96906357  138.19292150    0.96906357  138.19292150    0.24681127 -131.80707850
1177500032     0.24709139 -132.17327156    0.96899218  137.82672844    0.96899218  137.82672844    0.24709139 -132.17327156
1184249984     0.24781545 -132.63376589    0.96880726  137.36623411    0.96880726  137.36623411    0.24781545 -132.63376589
1191000064     0.24869020 -133.18681633    0.96858308  136.81318367    0.96858308  136.81318367    0.24869020 -133.18681633
1197750016     0.24970522 -133.76205507    0.96832190  136.23794493    0.96832190  136.23794493    0.24970522 -133.76205507
1204499968     0.25109807 -134.36499601    0.96796165  135.63500399    0.96796165  135.63500399    0.25109807 -134.36499601
1211250048     0.25271193 -134.98928568    0.96754157  135.01071432    0.96754157  135.01071432    0.25271193 -134.98928568
1218000000     0.25463914 -135.51043241    0.96703615  134.48956759    0.96703615  134.48956759    0.25463914 -135.51043241
1224749952     0.25701146 -136.06758333    0.96640835  133.93241667    0.96640835  133.93241667    0.25701146 -136.06758333
1231500032     0.25924212 -136.48750945    0.96581237  133.51249055    0.96581237  133.51249055    0.25924212 -136.48750945
1238249984     0.26195351 -136.88593200    0.96508049  133.11406800    0.96508049  133.11406800    0.26195351 -136.88593200
1244999936     0.26466290 -137.32580349    0.96434099  132.67419651    0.96434099  132.67419651    0.26466290 -137.32580349
1251750016     0.26722663 -137.69076253    0.96363371  132.30923747    0.96363371  132.30923747    0.26722663 -137.69076253
1258499968     0.26996717 -138.01896108    0.96286953  131.98103892    0.96286953  131.98103892    0.26996717 -138.01896108
1265250048     0.27270366 -138.38327829    0.96209808  131.61672171    0.96209808  131.61672171    0.27270366 -138.38327829
1272000000     0.27562625 -138.58660240    0.96126488  131.41339760    0.96126488  131.41339760    0.27562625 -138.58660240
1278749952     0.27860555 -138.81588696    0.96040562  131.18411304    0.96040562  131.18411304    0.27860555 -138.81588696
1285500032     0.28176746 -138.93885716    0.95948272  131.06114284    0.95948272  131.06114284    0.28176746 -138.93885716
1292249984     0.28476829 -139.04846604    0.95859638  130.95153396    0.95859638  130.95153396    0.28476829 -139.04846604
1299000064     0.28784468 -138.98975321    0.95767711  131.01024679    0.95767711  131.01024679    0.28784468 -138.98975321
1305750016     0.29087245 -138.98193955    0.95676184  131.01806045    0.95676184  131.01806045    0.29087245 -138.98193955
1312499968     0.29344927 -138.85941197    0.95597465  131.14058803    0.95597465  131.14058803    0.29344927 -138.85941197
1319250048     0.29591135 -138.70778913    0.95521541  131.29221087    0.95521541  131.29221087    0.29591135 -138.70778913
1326000000     0.29818118 -138.50167015    0.95450929  131.49832985    0.95450929  131.49832985    0.29818118 -138.50167015
1332749952     0.30019335 -138.28843265    0.95387838  131.71156735    0.95387838  131.71156735    0.30019335 -138.28843265
1339500032     0.30189544 -138.10664155    0.95334104  131.89335845    0.95334104  131.89335845    0.30189544 -138.10664155
1346249984     0.30360611 -137.88415331    0.95279763  132.11584669    0.95279763  132.11584669    0.30360611 -137.88415331
1352999936     0.30527249 -137.70608811    0.95226504  132.29391189    0.95226504  132.29391189    0.30527249 -137.70608811
1359750016     0.30644504 -137.48231635    0.95188835  132.51768365    0.95188835  132.51768365    0.30644504 -137.48231635
1366499968     0.30756218 -137.16167645    0.95152798  132.83832355    0.95152798  132.83832355    0.30756218 -137.16167645
1373250048     0.30846291 -136.86726274    0.95123637  133.13273726    0.95123637  133.13273726    0.30846291 -136.86726274
