# GHz S MA R 50

3.000000000000000e-01  1.617583e-01 -0.000000e+00  9.868304e-01  1.538698e+02  9.868304e-01  1.538698e+02  1.617583e-01  1.277396e+02
3.067500160000000e-01  1.537750e-01 -0.000000e+00  9.881059e-01  1.544104e+02  9.881059e-01  1.544104e+02  1.537750e-01  1.288207e+02
3.135000000000000e-01  1.467742e-01 -9.697407e-15  9.891700e-01  1.547989e+02  9.891700e-01  1.547989e+02  1.467742e-01  1.295977e+02
3.202499840000000e-01  1.399391e-01  2.554444e-15  9.901601e-01  1.552394e+02  9.901601e-01  1.552394e+02  1.399391e-01  1.304787e+02
3.270000000000000e-01  1.332732e-01  1.347352e-14  9.910793e-01  1.557064e+02  9.910793e-01  1.557064e+02  1.332732e-01  1.314128e+02
3.337500160000000e-01  1.268233e-01  8.536961e-15  9.919253e-01  1.562261e+02  9.919253e-01  1.562261e+02  1.268233e-01  1.324522e+02
3.405000000000000e-01  1.205054e-01  6.018695e-15  9.927127e-01  1.567578e+02  9.927127e-01  1.567578e+02  1.205054e-01  1.335156e+02
3.472499840000000e-01  1.143282e-01  6.376776e-15  9.934430e-01  1.573582e+02  9.934430e-01  1.573582e+02  1.143282e-01  1.347164e+02
3.540000000000000e-01  1.085041e-01 -3.376592e-15  9.940960e-01  1.579732e+02  9.940960e-01  1.579732e+02  1.085041e-01  1.359464e+02
3.607500160000000e-01  1.027430e-01 -0.000000e+00  9.947079e-01  1.586629e+02  9.947079e-01  1.586629e+02  1.027430e-01  1.373258e+02
3.675000000000001e-01  9.718730e-02  3.809968e-15  9.952661e-01  1.593563e+02  9.952661e-01  1.593563e+02  9.718730e-02  1.387125e+02
3.742499840000000e-01  9.192905e-02 -4.049862e-15  9.957656e-01  1.601227e+02  9.957656e-01  1.601227e+02  9.192905e-02  1.402453e+02
3.810000000000000e-01  8.682199e-02  1.508952e-14  9.962238e-01  1.609225e+02  9.962238e-01  1.609225e+02  8.682199e-02  1.418450e+02
3.877500160000000e-01  8.193008e-02  1.377886e-14  9.966381e-01  1.617496e+02  9.966381e-01  1.617496e+02  8.193008e-02  1.434992e+02
3.945000000000000e-01  7.735615e-02  9.778758e-15  9.970035e-01  1.625921e+02  9.970035e-01  1.625921e+02  7.735615e-02  1.451842e+02
4.012499840000000e-01  7.302508e-02 -5.205025e-15  9.973301e-01  1.634582e+02  9.973301e-01  1.634582e+02  7.302508e-02  1.469164e+02
4.080000000000000e-01  6.907436e-02 -5.530347e-15  9.976115e-01  1.643978e+02  9.976115e-01  1.643978e+02  6.907436e-02  1.487956e+02
4.147500160000000e-01  6.537681e-02 -8.807119e-15  9.978606e-01  1.653690e+02  9.978606e-01  1.653690e+02  6.537681e-02  1.507379e+02
4.215000000000000e-01  6.217709e-02 -1.240359e-14  9.980651e-01  1.663604e+02  9.980651e-01  1.663604e+02  6.217709e-02  1.527208e+02
4.282499840000000e-01  5.916769e-02  1.472977e-14  9.982481e-01  1.674201e+02  9.982481e-01  1.674201e+02  5.916769e-02  1.548403e+02
4.350000000000001e-01  5.650393e-02 -1.720822e-14  9.984024e-01  1.684762e+02  9.984024e-01  1.684762e+02  5.650393e-02  1.569524e+02
4.417500160000000e-01  5.428485e-02  1.438437e-14  9.985255e-01  1.695725e+02  9.985255e-01  1.695725e+02  5.428485e-02  1.591450e+02
4.485000000000000e-01  5.237693e-02 -3.740732e-15  9.986274e-01  1.707458e+02  9.986274e-01  1.707458e+02  5.237693e-02  1.614915e+02
4.552499840000001e-01  5.078946e-02 -2.902644e-15  9.987094e-01  1.719358e+02  9.987094e-01  1.719358e+02  5.078946e-02  1.638716e+02
4.620000000000000e-01  4.954197e-02 -6.963175e-15  9.987720e-01  1.731549e+02  9.987720e-01  1.731549e+02  4.954197e-02  1.663098e+02
4.687500160000001e-01  4.863204e-02  1.320500e-14  9.988168e-01  1.743820e+02  9.988168e-01  1.743820e+02  4.863204e-02  1.687641e+02
4.755000000000000e-01  4.814631e-02  4.625783e-15  9.988403e-01  1.755977e+02  9.988403e-01  1.755977e+02  4.814631e-02  1.711954e+02
4.822499840000000e-01  4.798445e-02 -1.032817e-15  9.988481e-01  1.767515e+02  9.988481e-01  1.767515e+02  4.798445e-02  1.735030e+02
4.890000000000001e-01  4.813154e-02 -1.030611e-15  9.988410e-01  1.778890e+02  9.988410e-01  1.778890e+02  4.813154e-02  1.757780e+02
4.957500160000000e-01  4.864078e-02 -7.652614e-16  9.988163e-01  1.790518e+02  9.988163e-01  1.790518e+02  4.864078e-02  1.781036e+02
5.025000000000001e-01  4.949609e-02  3.603845e-16  9.987743e-01  1.282157e-01  9.987743e-01  1.282157e-01  4.949609e-02 -1.797436e+02
5.092499840000000e-01  5.061151e-02 -4.902237e-16  9.987184e-01  1.181917e+00  9.987184e-01  1.181917e+00  5.061151e-02 -1.776362e+02
5.160000000000000e-01  5.205088e-02 -9.527523e-16  9.986444e-01  2.218501e+00  9.986444e-01  2.218501e+00  5.205088e-02 -1.755630e+02
5.227500160000000e-01  5.371695e-02 -4.611856e-16  9.985562e-01  3.201548e+00  9.985562e-01  3.201548e+00  5.371695e-02 -1.735969e+02
5.295000000000001e-01  5.576161e-02  1.774944e-15  9.984441e-01  4.179861e+00  9.984441e-01  4.179861e+00  5.576161e-02 -1.716403e+02
5.362499840000000e-01  5.798618e-02  4.260851e-15  9.983174e-01  5.126514e+00  9.983174e-01  5.126514e+00  5.798618e-02 -1.697470e+02
5.430000000000000e-01  6.045902e-02 -1.631915e-15  9.981707e-01  6.016790e+00  9.981707e-01  6.016790e+00  6.045902e-02 -1.679664e+02
5.497500160000001e-01  6.314517e-02 -2.339245e-15  9.980044e-01  6.904250e+00  9.980044e-01  6.904250e+00  6.314517e-02 -1.661915e+02
5.564999680000000e-01  6.591930e-02  1.490832e-15  9.978250e-01  7.731238e+00  9.978250e-01  7.731238e+00  6.591930e-02 -1.645375e+02
5.632499840000000e-01  6.903455e-02 -8.521346e-15  9.976143e-01  8.583731e+00  9.976143e-01  8.583731e+00  6.903455e-02 -1.628325e+02
5.700000000000001e-01  7.230312e-02 -1.352867e-15  9.973827e-01  9.345137e+00  9.973827e-01  9.345137e+00  7.230312e-02 -1.613097e+02
5.767500160000001e-01  7.570819e-02  6.443189e-15  9.971300e-01  1.013555e+01  9.971300e-01  1.013555e+01  7.570819e-02 -1.597289e+02
5.835000320000000e-01  7.930950e-02 -6.132842e-15  9.968500e-01  1.094035e+01  9.968500e-01  1.094035e+01  7.930950e-02 -1.581193e+02
5.902499840000001e-01  8.289391e-02 -4.679864e-15  9.965584e-01  1.172629e+01  9.965584e-01  1.172629e+01  8.289391e-02 -1.565474e+02
5.970000000000001e-01  8.667418e-02 -2.230475e-15  9.962367e-01  1.252364e+01  9.962367e-01  1.252364e+01  8.667418e-02 -1.549527e+02
6.037500160000000e-01  9.043441e-02 -1.278325e-14  9.959024e-01  1.328246e+01  9.959024e-01  1.328246e+01  9.043441e-02 -1.534351e+02
6.104999680000001e-01  9.419360e-02  4.076079e-15  9.955539e-01  1.406217e+01  9.955539e-01  1.406217e+01  9.419360e-02 -1.518757e+02
6.172499840000001e-01  9.789119e-02 -1.953465e-15  9.951971e-01  1.484482e+01  9.951971e-01  1.484482e+01  9.789119e-02 -1.503104e+02
6.240000000000000e-01  1.015539e-01  5.627197e-15  9.948300e-01  1.558302e+01  9.948300e-01  1.558302e+01  1.015539e-01 -1.488340e+02
6.307500160000000e-01  1.052739e-01  5.406657e-15  9.944433e-01  1.630791e+01  9.944433e-01  1.630791e+01  1.052739e-01 -1.473842e+02
6.375000320000001e-01  1.087331e-01  3.475129e-15  9.940710e-01  1.704049e+01  9.940710e-01  1.704049e+01  1.087331e-01 -1.459190e+02
6.442499840000000e-01  1.121706e-01 -6.708777e-15  9.936890e-01  1.774516e+01  9.936890e-01  1.774516e+01  1.121706e-01 -1.445097e+02
6.510000000000000e-01  1.154996e-01  6.487199e-15  9.933075e-01  1.843898e+01  9.933075e-01  1.843898e+01  1.154996e-01 -1.431220e+02
6.577500160000001e-01  1.188110e-01 -3.139703e-15  9.929169e-01  1.909576e+01  9.929169e-01  1.909576e+01  1.188110e-01 -1.418085e+02
6.644999680000000e-01  1.219946e-01 -3.044631e-15  9.925308e-01  1.973249e+01  9.925308e-01  1.973249e+01  1.219946e-01 -1.405350e+02
6.712499840000000e-01  1.249838e-01  2.958108e-15  9.921588e-01  2.039875e+01  9.921588e-01  2.039875e+01  1.249838e-01 -1.392025e+02
6.780000000000001e-01  1.278300e-01  5.758742e-15  9.917961e-01  2.101943e+01  9.917961e-01  2.101943e+01  1.278300e-01 -1.379611e+02
6.847500160000001e-01  1.305355e-01  0.000000e+00  9.914436e-01  2.165835e+01  9.914436e-01  2.165835e+01  1.305355e-01 -1.366833e+02
6.915000320000001e-01  1.330499e-01  5.483240e-15  9.911093e-01  2.222034e+01  9.911093e-01  2.222034e+01  1.330499e-01 -1.355593e+02
6.982499840000001e-01  1.353627e-01 -5.365812e-15  9.907961e-01  2.278714e+01  9.907961e-01  2.278714e+01  1.353627e-01 -1.344257e+02
7.050000000000001e-01  1.373899e-01  5.263888e-15  9.905170e-01  2.332976e+01  9.905170e-01  2.332976e+01  1.373899e-01 -1.333405e+02
7.117500160000001e-01  1.392754e-01  1.034214e-14  9.902537e-01  2.384081e+01  9.902537e-01  2.384081e+01  1.392754e-01 -1.323184e+02
7.184999680000000e-01  1.408393e-01 -1.273518e-14  9.900325e-01  2.430402e+01  9.900325e-01  2.430402e+01  1.408393e-01 -1.313920e+02
7.252499840000001e-01  1.422906e-01  2.511964e-15  9.898249e-01  2.473162e+01  9.898249e-01  2.473162e+01  1.422906e-01 -1.305368e+02
7.320000000000001e-01  1.435951e-01 -2.481344e-15  9.896365e-01  2.509533e+01  9.896365e-01  2.509533e+01  1.435951e-01 -1.298093e+02
7.387500160000000e-01  1.446749e-01  0.000000e+00  9.894792e-01  2.546072e+01  9.894792e-01  2.546072e+01  1.446749e-01 -1.290786e+02
7.455000320000000e-01  1.456843e-01 -1.458887e-14  9.893311e-01  2.576388e+01  9.893311e-01  2.576388e+01  1.456843e-01 -1.284722e+02
7.522499840000001e-01  1.465798e-01 -9.641527e-15  9.891989e-01  2.605315e+01  9.891989e-01  2.605315e+01  1.465798e-01 -1.278937e+02
7.590000000000000e-01  1.473530e-01 -1.435858e-14  9.890840e-01  2.626544e+01  9.890840e-01  2.626544e+01  1.473530e-01 -1.274691e+02
7.657500160000000e-01  1.480519e-01 -1.426562e-14  9.889796e-01  2.645714e+01  9.889796e-01  2.645714e+01  1.480519e-01 -1.270857e+02
7.724999680000001e-01  1.484984e-01 -1.420277e-14  9.889126e-01  2.661042e+01  9.889126e-01  2.661042e+01  1.484984e-01 -1.267792e+02
7.792499840000000e-01  1.488932e-01  9.432261e-15  9.888533e-01  2.673826e+01  9.888533e-01  2.673826e+01  1.488932e-01 -1.265235e+02
7.860000000000000e-01  1.492581e-01  4.702481e-15  9.887983e-01  2.678318e+01  9.887983e-01  2.678318e+01  1.492581e-01 -1.264336e+02
7.927500160000001e-01  1.495210e-01  4.693308e-15  9.887585e-01  2.680047e+01  9.887585e-01  2.680047e+01  1.495210e-01 -1.263991e+02
7.995000320000001e-01  1.497323e-01 -4.689570e-15  9.887266e-01  2.672688e+01  9.887266e-01  2.672688e+01  1.497323e-01 -1.265462e+02
8.062499840000000e-01  1.500879e-01  4.682988e-15  9.886727e-01  2.661031e+01  9.886727e-01  2.661031e+01  1.500879e-01 -1.267794e+02
8.130000000000001e-01  1.505258e-01  4.675963e-15  9.886061e-01  2.644049e+01  9.886061e-01  2.644049e+01  1.505258e-01 -1.271190e+02
8.197500160000001e-01  1.510454e-01  0.000000e+00  9.885268e-01  2.620118e+01  9.885268e-01  2.620118e+01  1.510454e-01 -1.275976e+02
8.264999680000000e-01  1.518675e-01  9.306204e-15  9.884009e-01  2.595363e+01  9.884009e-01  2.595363e+01  1.518675e-01 -1.280927e+02
8.332499840000001e-01  1.528569e-01  9.268805e-15  9.882483e-01  2.564293e+01  9.882483e-01  2.564293e+01  1.528569e-01 -1.287141e+02
8.400000000000001e-01  1.541202e-01  9.215036e-15  9.880521e-01  2.532909e+01  9.880521e-01  2.532909e+01  1.541202e-01 -1.293418e+02
8.467500160000001e-01  1.555379e-01 -9.153281e-15  9.878299e-01  2.500504e+01  9.878299e-01  2.500504e+01  1.555379e-01 -1.299899e+02
8.535000320000000e-01  1.571459e-01  9.081025e-15  9.875754e-01  2.468107e+01  9.875754e-01  2.468107e+01  1.571459e-01 -1.306379e+02
8.602499840000001e-01  1.588420e-01  0.000000e+00  9.873040e-01  2.435571e+01  9.873040e-01  2.435571e+01  1.588420e-01 -1.312886e+02
8.670000000000001e-01  1.607969e-01  0.000000e+00  9.869875e-01  2.400078e+01  9.869875e-01  2.400078e+01  1.607969e-01 -1.319984e+02
8.737500160000000e-01  1.630082e-01  0.000000e+00  9.866247e-01  2.367301e+01  9.866247e-01  2.367301e+01  1.630082e-01 -1.326540e+02
8.804999680000001e-01  1.655379e-01 -4.350231e-15  9.862034e-01  2.331638e+01  9.862034e-01  2.331638e+01  1.655379e-01 -1.333672e+02
8.872499840000001e-01  1.681970e-01  4.289272e-15  9.857534e-01  2.301102e+01  9.857534e-01  2.301102e+01  1.681970e-01 -1.339780e+02
8.940000000000000e-01  1.712002e-01  0.000000e+00  9.852363e-01  2.269906e+01  9.852363e-01  2.269906e+01  1.712002e-01 -1.346019e+02
9.007500160000000e-01  1.750315e-01 -1.654249e-14  9.845628e-01  2.238645e+01  9.845628e-01  2.238645e+01  1.750315e-01 -1.352271e+02
9.075000320000001e-01  1.805053e-01  0.000000e+00  9.835740e-01  2.209516e+01  9.835740e-01  2.209516e+01  1.805053e-01 -1.358097e+02
9.142499840000000e-01  1.826149e-01  0.000000e+00  9.831845e-01  2.183723e+01  9.831845e-01  2.183723e+01  1.826149e-01 -1.363255e+02
9.210000000000000e-01  1.852496e-01  0.000000e+00  9.826915e-01  2.179866e+01  9.826915e-01  2.179866e+01  1.852496e-01 -1.364027e+02
9.277500160000001e-01  1.891368e-01 -3.836971e-15  9.819507e-01  2.164878e+01  9.819507e-01  2.164878e+01  1.891368e-01 -1.367024e+02
9.344999680000000e-01  1.929276e-01  0.000000e+00  9.812130e-01  2.157684e+01  9.812130e-01  2.157684e+01  1.929276e-01 -1.368463e+02
9.412499840000000e-01  1.970275e-01  0.000000e+00  9.803980e-01  2.150445e+01  9.803980e-01  2.150445e+01  1.970275e-01 -1.369911e+02
9.480000000000001e-01  2.027931e-01  0.000000e+00  9.792216e-01  2.125619e+01  9.792216e-01  2.125619e+01  2.027931e-01 -1.374876e+02
9.547500160000001e-01  2.055979e-01  0.000000e+00  9.786366e-01  2.147767e+01  9.786366e-01  2.147767e+01  2.055979e-01 -1.370447e+02
9.615000320000000e-01  2.083484e-01 -1.041933e-14  9.780547e-01  2.149164e+01  9.780547e-01  2.149164e+01  2.083484e-01 -1.370167e+02
9.682499840000001e-01  2.121077e-01 -6.814713e-15  9.772463e-01  2.155048e+01  9.772463e-01  2.155048e+01  2.121077e-01 -1.368990e+02
9.750000000000001e-01  2.158079e-01 -3.344321e-15  9.764358e-01  2.162990e+01  9.764358e-01  2.162990e+01  2.158079e-01 -1.367402e+02
9.817500160000001e-01  2.194087e-01  0.000000e+00  9.756330e-01  2.174979e+01  9.756330e-01  2.174979e+01  2.194087e-01 -1.365004e+02
9.884999680000001e-01  2.228608e-01  6.452807e-15  9.748503e-01  2.193270e+01  9.748503e-01  2.193270e+01  2.228608e-01 -1.361346e+02
9.952499840000001e-01  2.262309e-01 -6.340738e-15  9.740737e-01  2.217515e+01  9.740737e-01  2.217515e+01  2.262309e-01 -1.356497e+02
1.002000000000000e+00  2.291434e-01  0.000000e+00  9.733927e-01  2.237459e+01  9.733927e-01  2.237459e+01  2.291434e-01 -1.352508e+02
1.008750016000000e+00  2.319983e-01  0.000000e+00  9.727162e-01  2.255174e+01  9.727162e-01  2.255174e+01  2.319983e-01 -1.348965e+02
1.015500032000000e+00  2.344961e-01 -3.039437e-15  9.721171e-01  2.276830e+01  9.721171e-01  2.276830e+01  2.344961e-01 -1.344634e+02
1.022249984000000e+00  2.366237e-01  6.010830e-15  9.716014e-01  2.299828e+01  9.716014e-01  2.299828e+01  2.366237e-01 -1.340034e+02
1.029000000000000e+00  2.387925e-01  5.942234e-15  9.710706e-01  2.324083e+01  9.710706e-01  2.324083e+01  2.387925e-01 -1.335183e+02
1.035750016000000e+00  2.405120e-01 -5.886570e-15  9.706462e-01  2.347955e+01  9.706462e-01  2.347955e+01  2.405120e-01 -1.330409e+02
1.042499968000000e+00  2.422000e-01  5.833161e-15  9.702263e-01  2.370097e+01  9.702263e-01  2.370097e+01  2.422000e-01 -1.325981e+02
1.049249984000000e+00  2.435701e-01  0.000000e+00  9.698833e-01  2.387455e+01  9.698833e-01  2.387455e+01  2.435701e-01 -1.322509e+02
1.056000000000000e+00  2.445773e-01  0.000000e+00  9.696298e-01  2.405753e+01  9.696298e-01  2.405753e+01  2.445773e-01 -1.318849e+02
1.062750016000000e+00  2.455259e-01 -2.862448e-15  9.693900e-01  2.424647e+01  9.693900e-01  2.424647e+01  2.455259e-01 -1.315071e+02
1.069500032000000e+00  2.463152e-01  0.000000e+00  9.691898e-01  2.442400e+01  9.691898e-01  2.442400e+01  2.463152e-01 -1.311520e+02
1.076249984000000e+00  2.469739e-01 -5.674756e-15  9.690221e-01  2.456683e+01  9.690221e-01  2.456683e+01  2.469739e-01 -1.308663e+02
1.083000064000000e+00  2.472697e-01  5.659823e-15  9.689467e-01  2.473662e+01  9.689467e-01  2.473662e+01  2.472697e-01 -1.305268e+02
1.089750016000000e+00  2.475177e-01  2.824108e-15  9.688834e-01  2.485879e+01  9.688834e-01  2.485879e+01  2.475177e-01 -1.302824e+02
1.096499968000000e+00  2.475222e-01 -5.643318e-15  9.688822e-01  2.496342e+01  9.688822e-01  2.496342e+01  2.475222e-01 -1.300732e+02
1.103250048000000e+00  2.475630e-01  0.000000e+00  9.688718e-01  2.504000e+01  9.688718e-01  2.504000e+01  2.475630e-01 -1.299200e+02
1.110000000000000e+00  2.471352e-01  0.000000e+00  9.689810e-01  2.508161e+01  9.689810e-01  2.508161e+01  2.471352e-01 -1.298368e+02
1.116749952000000e+00  2.469021e-01  0.000000e+00  9.690404e-01  2.510484e+01  9.690404e-01  2.510484e+01  2.469021e-01 -1.297903e+02
1.123500032000000e+00  2.464365e-01  2.832335e-15  9.691589e-01  2.507455e+01  9.691589e-01  2.507455e+01  2.464365e-01 -1.298509e+02
1.130249984000000e+00  2.462998e-01 -2.835356e-15  9.691937e-01  2.501630e+01  9.691937e-01  2.501630e+01  2.462998e-01 -1.299674e+02
1.136999936000000e+00  2.461603e-01  2.839438e-15  9.692291e-01  2.491343e+01  9.692291e-01  2.491343e+01  2.461603e-01 -1.301731e+02
1.143750016000000e+00  2.462500e-01  0.000000e+00  9.692063e-01  2.477835e+01  9.692063e-01  2.477835e+01  2.462500e-01 -1.304433e+02
1.150499968000000e+00  2.463011e-01  5.687796e-15  9.691934e-01  2.464308e+01  9.691934e-01  2.464308e+01  2.463011e-01 -1.307138e+02
1.157250048000000e+00  2.463767e-01 -5.692636e-15  9.691741e-01  2.449552e+01  9.691741e-01  2.449552e+01  2.463767e-01 -1.310090e+02
1.164000000000000e+00  2.465962e-01  2.847991e-15  9.691183e-01  2.430153e+01  9.691183e-01  2.430153e+01  2.465962e-01 -1.313969e+02
1.170749952000000e+00  2.468113e-01 -2.849929e-15  9.690636e-01  2.409646e+01  9.690636e-01  2.409646e+01  2.468113e-01 -1.318071e+02
1.177500032000000e+00  2.470914e-01  8.551627e-15  9.689922e-01  2.391336e+01  9.689922e-01  2.391336e+01  2.470914e-01 -1.321733e+02
1.184249984000000e+00  2.478155e-01  8.540135e-15  9.688073e-01  2.368312e+01  9.688073e-01  2.368312e+01  2.478155e-01 -1.326338e+02
1.191000064000000e+00  2.486902e-01  5.684026e-15  9.685831e-01  2.340659e+01  9.685831e-01  2.340659e+01  2.486902e-01 -1.331868e+02
1.197750016000000e+00  2.497052e-01  0.000000e+00  9.683219e-01  2.311897e+01  9.683219e-01  2.311897e+01  2.497052e-01 -1.337621e+02
1.204499968000000e+00  2.510981e-01  0.000000e+00  9.679617e-01  2.281750e+01  9.679617e-01  2.281750e+01  2.510981e-01 -1.343650e+02
1.211250048000000e+00  2.527119e-01  2.812453e-15  9.675416e-01  2.250536e+01  9.675416e-01  2.250536e+01  2.527119e-01 -1.349893e+02
1.218000000000000e+00  2.546391e-01  2.794937e-15  9.670361e-01  2.224478e+01  9.670361e-01  2.224478e+01  2.546391e-01 -1.355104e+02
1.224749952000000e+00  2.570115e-01 -2.772811e-15  9.664084e-01  2.196621e+01  9.664084e-01  2.196621e+01  2.570115e-01 -1.360676e+02
1.231500032000000e+00  2.592421e-01  0.000000e+00  9.658124e-01  2.175625e+01  9.658124e-01  2.175625e+01  2.592421e-01 -1.364875e+02
1.238249984000000e+00  2.619535e-01  0.000000e+00  9.650805e-01  2.155703e+01  9.650805e-01  2.155703e+01  2.619535e-01 -1.368859e+02
1.244999936000000e+00  2.646629e-01 -2.698626e-15  9.643410e-01  2.133710e+01  9.643410e-01  2.133710e+01  2.646629e-01 -1.373258e+02
1.251750016000000e+00  2.672266e-01 -2.674085e-15  9.636337e-01  2.115462e+01  9.636337e-01  2.115462e+01  2.672266e-01 -1.376908e+02
1.258499968000000e+00  2.699672e-01  0.000000e+00  9.628695e-01  2.099052e+01  9.628695e-01  2.099052e+01  2.699672e-01 -1.380190e+02
1.265250048000000e+00  2.727037e-01 -2.622272e-15  9.620981e-01  2.080836e+01  9.620981e-01  2.080836e+01  2.727037e-01 -1.383833e+02
1.272000000000000e+00  2.756262e-01 -5.187929e-15  9.612649e-01  2.070670e+01  9.612649e-01  2.070670e+01  2.756262e-01 -1.385866e+02
1.278749952000000e+00  2.786055e-01 -5.131731e-15  9.604056e-01  2.059206e+01  9.604056e-01  2.059206e+01  2.786055e-01 -1.388159e+02
1.285500032000000e+00  2.817675e-01  0.000000e+00  9.594827e-01  2.053057e+01  9.594827e-01  2.053057e+01  2.817675e-01 -1.389389e+02
1.292249984000000e+00  2.847683e-01  0.000000e+00  9.585964e-01  2.047577e+01  9.585964e-01  2.047577e+01  2.847683e-01 -1.390485e+02
1.299000064000000e+00  2.878447e-01 -2.477861e-15  9.576771e-01  2.050512e+01  9.576771e-01  2.050512e+01  2.878447e-01 -1.389898e+02
