!Keysight Technologies,P9370A,MY57212402,A.14.70.03
!Date: Wednesday, September 22, 2021 17:26:40
!Correction: S11(C  2-Port  ) 
!S1P File: Measurement: S11:Log Frequency Sweep
# Hz S  dB   R 50
100000000 -2.1042001 -124.45029
100740504.16253 -2.1454771 -125.32287
101486491.78921 -2.1909215 -126.21478
102238003.48532 -2.2281423 -127.12038
102995080.15681 -2.2577085 -128.00671
103757763.01258 -2.2938817 -129.00703
104526093.56664 -2.3383582 -129.88429
105300113.64043 -2.3671119 -130.86624
106079865.36509 -2.4185083 -131.80466
106865391.18372 -2.4540243 -132.63783
107656733.85374 -2.4976289 -133.61726
108453936.44917 -2.545558 -134.49849
109257042.36301 -2.5942142 -135.43903
110066095.30957 -2.6304836 -136.38806
110881139.32687 -2.6717553 -137.28897
111702218.77905 -2.7229097 -138.20511
112529378.35875 -2.7674825 -139.15659
113362663.08956 -2.8133976 -140.06723
114202118.3285 -2.8588502 -141.0392
115047789.76842 -2.9040976 -142.04788
115899723.44055 -2.9555502 -142.98541
116757965.71699 -2.9950581 -143.93213
117622563.31322 -3.0452735 -144.90125
118493563.29063 -3.091372 -145.84454
119371013.05912 -3.1351256 -146.86554
120254960.37968 -3.184756 -147.86328
121145453.36695 -3.2418351 -148.79338
122042540.49185 -3.2884851 -149.84926
122946270.58425 -3.333461 -150.81329
123856692.8356 -3.3871233 -151.79732
124773856.80162 -3.4352965 -152.81436
125697812.40499 -3.4877756 -153.83162
126628609.93806 -3.5378127 -154.88295
127566300.0656 -3.5910077 -155.83356
128510933.82758 -3.6385322 -156.85646
129462562.64188 -3.702219 -157.91978
130421238.30716 -3.7372458 -158.88802
131387013.00565 -3.800024 -159.96179
132359939.30598 -3.8527291 -161.00417
133340070.16607 -3.9023097 -161.99896
134327458.93597 -3.958883 -163.02773
135322159.36081 -4.0107608 -164.11731
136324225.58371 -4.0663567 -165.15408
137333712.14869 -4.1148434 -166.20236
138350674.00371 -4.1712079 -167.24837
139375166.5036 -4.2275004 -168.27483
140407245.4131 -4.2937827 -169.4205
141446966.90988 -4.3406978 -170.4409
142494387.58762 -4.3907156 -171.53607
143549564.45908 -4.4560719 -172.56802
144612554.95919 -4.5079999 -173.64406
145683416.94821 -4.5694623 -174.71254
146762208.71483 -4.6204686 -175.84373
147848988.97938 -4.6777253 -176.90186
148943816.89704 -4.7277985 -177.95404
150046752.06099 -4.7831559 -179.07072
151157854.50575 -4.8454938 179.78703
152277184.71036 -4.9011731 178.68988
153404803.60172 -4.9633045 177.63409
154540772.55791 -5.0147614 176.47098
155685153.41151 -5.0669904 175.42207
156838008.45297 -5.1312709 174.33723
157999400.434 -5.1831684 173.17455
159169392.57098 -5.2360277 172.05716
160348048.54845 -5.2931786 171.01245
161535432.52249 -5.3564339 169.88455
162731609.12428 -5.4074907 168.79733
163936643.4636 -5.4632664 167.62874
165150601.13236 -5.5283446 166.54677
166373548.20819 -5.5789018 165.44046
167605551.25802 -5.6385565 164.27284
168846677.34172 -5.694047 163.17616
170096994.01573 -5.740737 162.03961
171356569.33676 -5.8032317 160.9052
172625471.86547 -5.8610349 159.8112
173903770.67023 -5.9120665 158.67487
175191535.33084 -5.9613099 157.54399
176488835.94236 -6.0168424 156.44949
177795743.11892 -6.071909 155.26109
179112327.99752 -6.1246891 154.16948
180438662.24195 -6.1715384 153.08983
181774818.04667 -6.2261539 151.95166
183120868.14074 -6.2787247 150.87982
184476885.79178 -6.335093 149.78499
185842944.80998 -6.389235 148.66167
187219119.55207 -6.4376478 147.53568
188605484.9254 -6.4863629 146.35652
190002116.39204 -6.5357161 145.27751
191409089.97282 -6.5867567 144.16121
192826482.25153 -6.6269231 143.06367
194254370.37907 -6.6805944 141.9543
195692832.07762 -6.737854 140.82033
197141945.64493 -6.7809548 139.81842
198601789.95853 -6.8324108 138.69196
200072444.48003 -6.8849192 137.57526
201553989.25949 -6.9360495 136.45258
203046504.9397 -6.9767804 135.35727
204550072.76065 -7.0297756 134.37601
206064774.56391 -7.0639796 133.18349
207590692.79706 -7.1173997 132.15359
209127910.51825 -7.1739788 131.10036
210676511.40066 -7.2089958 129.99037
212236579.73706 -7.2596941 128.85675
213808200.44442 -7.3067565 127.80623
215391459.06855 -7.3492541 126.71282
216986441.78869 -7.3892469 125.63165
218593235.42226 -7.4426227 124.56148
220211927.42957 -7.4831018 123.47617
221842605.91858 -7.5337076 122.47028
223485359.64968 -7.5626211 121.36853
225140278.04053 -7.6170382 120.28295
226807451.17095 -7.6566219 119.20772
228486969.78781 -7.7016363 118.20185
230178925.30993 -7.7522373 117.17963
231883409.83312 -7.7832007 115.99407
233600516.13515 -7.8165898 114.99605
235330337.68083 -7.8678474 113.94769
237072968.62705 -7.9013581 112.88742
238828503.82797 -7.9559612 111.77689
240597038.84013 -7.9876895 110.70768
242378669.92767 -8.027194 109.68459
244173494.06757 -8.0626507 108.57952
245981608.95494 -8.0974236 107.51347
247803113.00831 -8.1367083 106.45391
249638105.37502 -8.1694918 105.38859
251486685.93659 -8.2147741 104.37253
253348955.31416 -8.2446556 103.33147
255225014.87399 -8.2860994 102.23431
257114966.73295 -8.3080931 101.21938
259018913.7641 -8.3606958 100.16123
260936959.60227 -8.3919764 99.203735
262869208.64971 -8.4158926 98.129524
264815766.08177 -8.4575853 97.106598
266776737.85265 -8.4822845 96.051437
268752230.70111 -8.5121698 95.082626
270742352.15635 -8.564106 94.065941
272747210.5438 -8.5893812 93.037819
274766914.99107 -8.6182404 91.976357
276801575.43383 -8.6464338 90.981049
278851302.62187 -8.6772766 90.065414
280916208.12506 -8.7002811 89.031448
282996404.33945 -8.7446108 87.991867
285092004.4934 -8.7689753 87.054306
287203122.65372 -8.8014059 86.07122
289329873.73189 -8.8205328 85.091034
291472373.49032 -8.8628902 84.093628
293630738.54864 -8.8847742 83.077324
295805086.39007 -8.9128513 82.092972
297995535.36777 -8.9452181 81.180931
300202204.71132 -8.9701385 80.124245
302425214.53322 -8.995822 79.138733
304664685.83539 -9.0166826 78.275467
306920740.51576 -9.048583 77.211243
309193501.37495 -9.076354 76.283966
311483092.12291 -9.1070089 75.307144
313789637.38566 -9.1345978 74.371101
316113262.71209 -9.1711636 73.318954
318454094.58079 -9.1906195 72.484146
320812260.40691 -9.2224941 71.566071
323187888.54914 -9.2501459 70.548965
325581108.31664 -9.2669191 69.576889
327992049.97614 -9.2842035 68.646782
330420844.75899 -9.3141432 67.688896
332867624.8683 -9.3358831 66.664078
335332523.48617 -9.3625927 65.720055
337815674.7809 -9.3827353 64.726784
340317213.91434 -9.4158831 63.775417
342837277.04918 -9.4328642 62.911049
345376001.35644 -9.4452982 61.929878
347933525.02287 -9.4720716 60.96357
350509987.25851 -9.488368 60.086781
353105528.30425 -9.5082941 59.105488
355720289.43947 -9.5348148 58.281712
358354412.98974 -9.5408897 57.390568
361008042.33454 -9.5731344 56.408157
363681321.9151 -9.5890884 55.499653
366374397.24223 -9.6069603 54.586319
369087414.90426 -9.6220465 53.740505
371820522.575 -9.6509275 52.884537
374573869.02182 -9.6490154 51.988937
377347604.11368 -9.6747713 51.064014
380141878.82935 -9.7048283 50.234947
382956845.26561 -9.7265396 49.393349
385792656.6455 -9.7433615 48.489384
388649467.3267 -9.760314 47.726574
391527432.80991 -9.7944231 46.809971
394426709.74732 -9.8083696 46.019768
397347455.95113 -9.832552 45.10384
400289830.40216 -9.8495054 44.324673
403253993.25848 -9.8745441 43.49506
406240105.86413 -9.9141874 42.667946
409248330.75793 -9.9294386 41.728477
412278831.68228 -9.9448271 40.917408
415331773.59212 -9.9820328 39.960953
418407322.66389 -10.012407 39.124367
421505646.30455 -10.030287 38.215977
424626913.16074 -10.060995 37.406178
427771293.12793 -10.077348 36.494328
430938957.35965 -10.099144 35.675922
434130078.27687 -10.127477 34.707077
437344829.57731 -10.16906 33.795856
440583386.24495 -10.173697 33.010288
443845924.55951 -10.195974 32.097984
447132622.1061 -10.2275 31.235914
450443657.78483 -10.243052 30.240128
453779211.82059 -10.257427 29.479439
457139465.77282 -10.27925 28.642933
460524602.54544 -10.302011 27.810123
463934806.39677 -10.306666 26.950274
467370262.94957 -10.336208 26.105951
470831159.20115 -10.361031 25.334383
474317683.53353 -10.378061 24.450127
477830025.72372 -10.399982 23.665838
481368376.95402 -10.432693 22.872255
484932929.82248 -10.449451 22.027946
488523878.3533 -10.470241 21.226883
492141418.00747 -10.506447 20.345642
495785745.69335 -10.515344 19.639341
499457059.77745 -10.553324 18.81756
503155560.09516 -10.57452 17.959648
506881447.96167 -10.600327 17.234995
510634926.18292 -10.645633 16.288883
514416199.06665 -10.671441 15.523596
518225472.43347 -10.698599 14.579205
522062953.62814 -10.722379 13.892491
525928851.53079 -10.759511 12.965063
529823376.56833 -10.781851 12.096392
533746740.72588 -10.8248 11.294335
537699157.55833 -10.83515 10.496554
541680842.20195 -10.870903 9.7118235
545692011.38609 -10.897617 8.8481846
549732883.445 -10.950899 8.1454821
553803678.32972 -10.953583 7.247745
557904617.62 -10.989931 6.4075165
562035924.53643 -11.026675 5.6013298
566197823.95254 -11.065338 4.8470521
570390542.40708 -11.083069 4.192812
574614308.11628 -11.123348 3.3557174
578869350.98639 -11.161606 2.5607378
583155902.62606 -11.203397 1.7744399
587474196.35905 -11.247412 1.031849
591824467.23689 -11.297088 0.30208737
596206952.05166 -11.329475 -0.47438711
600621889.3489 -11.377 -1.3927351
605069519.4406 -11.436877 -2.223093
609550084.41827 -11.489902 -3.0368457
614063828.1661 -11.547901 -3.8773627
618610996.37427 -11.592875 -4.7475033
623191836.5523 -11.639162 -5.5640631
627806598.04253 -11.681725 -6.4645562
632455532.03368 -11.722591 -7.348166
637138891.57454 -11.763622 -8.175684
641856931.58776 -11.813497 -9.1327477
646609908.88366 -11.836823 -9.9018831
651398082.17429 -11.896785 -10.780537
656221712.08744 -11.927918 -11.480118
661081061.18088 -11.961576 -12.23068
665976393.95663 -12.020027 -13.009598
670907976.87536 -12.0618 -13.789149
675876078.37087 -12.117685 -14.448909
680880968.86476 -12.178714 -15.145925
685922920.78109 -12.246591 -15.798084
691002208.56123 -12.304587 -16.535841
696119108.67881 -12.394723 -17.372404
701273899.65475 -12.462365 -18.038122
706466862.07244 -12.54747 -18.849251
711698278.59299 -12.61994 -19.71693
716968433.97064 -12.709808 -20.592714
722277615.06823 -12.763165 -21.352839
727626110.87284 -12.850027 -22.244741
733014212.51152 -12.928167 -22.994724
738442213.26711 -12.988125 -23.691837
743910408.59425 -13.059587 -24.631912
749419096.13539 -13.115612 -25.276299
754968575.73708 -13.195377 -26.084831
760559149.46621 -13.262054 -26.734261
766191121.62653 -13.350202 -27.275019
771864798.77511 -13.421274 -27.948191
777580489.73916 -13.50562 -28.371613
783338505.63271 -13.606177 -29.128681
789139159.87363 -13.717646 -29.737547
794982768.20066 -13.821249 -30.300987
800869648.69059 -13.945313 -30.925314
806800121.7756 -14.062532 -31.622902
812774510.26065 -14.195053 -32.36924
818793139.34113 -14.316026 -33.185551
824856336.62047 -14.406872 -33.807793
830964432.12805 -14.542823 -34.421261
837117758.33711 -14.638261 -35.199047
843316650.18289 -14.760432 -35.871174
849561445.08081 -14.87994 -36.561295
855852482.94489 -15.001308 -37.00518
862190106.20623 -15.089654 -37.595367
868574659.83162 -15.239487 -37.994331
875006491.34237 -15.389322 -38.353867
881485950.83318 -15.4973 -38.775597
888013390.99123 -15.694735 -39.198959
894589167.11535 -15.898349 -39.632431
901213637.1354 -16.061186 -40.068195
907887161.63168 -16.272713 -40.622845
914610103.85465 -16.469309 -41.286304
921382829.74463 -16.658451 -41.965046
928205707.95174 -16.810572 -42.658203
935079109.85597 -16.948599 -43.267342
942003409.58742 -17.13007 -43.823162
948978984.0466 -17.256411 -44.356766
956006212.92501 -17.430849 -44.700119
963085478.72578 -17.58968 -44.892487
970217166.78448 -17.738899 -45.009388
977401665.29011 -17.937769 -45.032562
984639365.30624 -18.157707 -45.081139
991930660.79225 -18.400034 -45.144543
999275948.62485 -18.94503 -44.578194
1006675628.6196 -18.865507 -45.272362
1014130103.5527 -19.143263 -45.412605
1021639779.183 -19.396406 -45.520428
1029205064.2739 -19.603619 -45.6068
1036826370.6159 -19.787321 -45.770935
1044504113.0485 -19.970413 -46.003677
1052238709.4834 -20.146963 -46.151218
1060030580.9269 -20.29458 -46.243641
1067880151.5028 -20.617702 -45.99976
1075787848.4755 -20.836853 -45.172501
1083754102.2735 -21.098286 -44.797398
1091779346.5124 -21.389606 -43.857361
1099864018.019 -21.710781 -43.09436
1108008556.8546 -22.067486 -42.88224
1116213406.3393 -22.419056 -42.031425
1124479013.076 -22.725201 -42.052258
1132805826.9746 -23.018082 -41.582344
1141194301.2768 -23.30584 -41.098263
1149644892.5803 -23.549963 -40.769707
1158158060.8642 -23.730705 -39.786282
1166734269.5136 -23.86783 -38.694809
1175373985.345 -24.116419 -37.727634
1184077678.6318 -24.364328 -35.916245
1192845823.1297 -24.637077 -34.167664
1201678896.1025 -24.991533 -33.187355
1210577378.3484 -25.25243 -32.153015
1219541754.2257 -25.57777 -31.061007
1228572511.6796 -25.854668 -30.622589
1237670142.2683 -26.054655 -30.012375
1246835141.1902 -26.123064 -29.587255
1256068007.3106 -26.104107 -28.616859
1265369243.189 -26.149998 -27.493286
1274739355.1062 -26.115423 -26.417339
1284178853.0922 -26.19202 -24.506536
1293688250.9537 -26.228571 -22.161976
1303268066.3022 -26.324366 -21.245918
1312918820.5821 -26.50592 -20.144691
1322641039.0991 -26.624487 -19.548832
1332435251.049 -26.707026 -19.198511
1342301989.5461 -26.723761 -19.895538
1352241791.6524 -26.664789 -19.979921
1362255198.4071 -26.537861 -20.001358
1372342754.8556 -26.403687 -19.958361
1382505010.0795 -26.234644 -19.339289
1392742517.2263 -26.081602 -19.425968
1403055833.5397 -26.046291 -18.572239
1413445520.3897 -26.1063 -18.260012
1423912143.3033 -26.06176 -18.804968
1434456271.9953 -26.090437 -20.619883
1445078480.3991 -25.992229 -21.473558
1455779346.6983 -25.762245 -23.634186
1466559453.3579 -25.53154 -24.559652
1477419387.156 -25.348562 -25.914953
1488359739.2159 -25.142241 -26.349138
1499381105.0382 -24.913692 -27.013897
1510484084.5333 -24.80719 -28.69467
1521669282.0536 -24.690512 -29.863342
1532937306.4272 -24.572174 -32.01857
1544288770.9903 -24.26967 -34.423203
1555724293.621 -23.860304 -36.196037
1567244496.7727 -23.568117 -37.686657
1578850007.5084 -23.245361 -38.98439
1590541457.5341 -22.953434 -39.992989
1602319483.2339 -22.725298 -41.103683
1614184725.7043 -22.541727 -42.228691
1626137830.7891 -22.312855 -44.042763
1638179449.1146 -22.013464 -46.101967
1650310236.125 -21.726135 -47.862049
1662530852.1182 -21.376534 -49.211197
1674841962.2815 -21.014229 -50.607513
1687244236.728 -20.719324 -51.887432
1699738350.5331 -20.455254 -52.88327
1712324983.7709 -20.230347 -54.142635
1725004821.5518 -19.952776 -55.564514
1737778554.0593 -19.669886 -57.003853
1750646876.5877 -19.343897 -58.741684
1763610489.58 -19.053741 -59.753719
1776670098.6662 -18.726925 -60.707813
1789826414.7013 -18.494457 -61.424061
1803080153.8042 -18.243551 -62.479149
1816432037.3969 -18.048656 -63.714779
1829882792.2434 -17.831659 -64.926331
1843433150.4894 -17.57848 -66.134003
1857083849.7022 -17.362852 -67.348
1870835632.911 -17.175043 -68.458824
1884689248.6468 -17.001169 -69.475624
1898645450.9838 -16.824396 -70.554565
1912704999.5801 -16.669161 -72.010025
1926868659.7189 -16.486004 -73.375412
1941137202.3506 -16.302858 -74.795395
1955511404.1345 -16.126692 -75.894257
1969992047.4809 -15.961187 -76.972473
1984579920.594 -15.866291 -78.193161
1999275817.5148 -15.798751 -79.56266
2014080538.164 -15.694974 -81.274796
2028994888.3858 -15.600801 -82.818672
2044019679.9918 -15.496736 -84.371704
2059155730.8051 -15.41084 -85.847672
2074403864.7048 -15.379088 -87.272415
2089764911.6706 -15.359215 -88.922745
2105239707.8286 -15.36721 -90.929413
2120829095.4964 -15.348806 -93.363136
2136533923.2287 -15.295883 -95.616982
2152355045.8641 -15.245463 -97.761429
2168293324.5712 -15.230844 -99.855469
2184349626.8955 -15.25141 -102.16982
2200524826.8069 -15.253668 -104.91782
2216819804.747 -15.282466 -107.85331
2233235447.6769 -15.222162 -110.93078
2249772649.1261 -15.185647 -113.761
2266432309.2404 -15.186592 -116.63727
2283215334.8313 -15.208374 -119.78906
2300122639.4252 -15.197124 -123.21452
2317155143.3135 -15.137968 -127.06536
2334313773.6021 -15.041032 -130.38724
2351599464.2621 -14.971428 -133.44919
2369013156.1811 -14.918546 -136.7197
2386555797.2135 -14.883495 -140.33687
2404228342.233 -14.788383 -144.25015
2422031753.184 -14.652927 -148.1281
2439966999.1341 -14.457558 -151.50584
2458035056.3271 -14.282811 -154.67435
2476236908.2357 -14.157706 -157.84999
2494573545.6153 -13.984218 -161.24097
2513045966.558 -13.798234 -164.35635
2531655176.5467 -13.579253 -167.01306
2550402188.51 -13.408478 -169.4462
2569288022.8772 -13.262527 -171.72177
2588313707.634 -13.118114 -174.00076
2607480278.3784 -12.954993 -176.7198
2626788778.377 -12.791953 -179.0058
2646240258.6218 -12.667951 179.01907
2665835777.8874 -12.572489 176.94098
2685576402.789 -12.466217 174.86147
2705463207.8396 -12.336219 173.05389
2725497275.5094 -12.233223 171.68707
2745679696.2842 -12.179676 170.45004
2766011568.725 -12.175929 168.77216
2786493999.5275 -12.185169 167.15184
2807128103.5826 -12.124122 165.52403
2827915004.0373 -12.105311 164.47118
2848855832.355 -12.16685 163.51074
2869951728.3781 -12.301645 162.06276
2891203840.3894 -12.36064 160.09052
2912613325.1748 -12.390358 158.55139
2934181348.0861 -12.430046 157.61922
2955909083.1049 -12.592399 156.45673
2977797712.9059 -12.813536 154.86664
2999848428.9218 -12.971898 152.94487
3022062431.4076 -13.106822 151.37918
3044440929.5064 -13.309794 150.04517
3066985141.3152 -13.578874 148.45721
3089696293.9509 -13.772267 146.08572
3112575623.6172 -13.96452 143.82394
3135624375.672 -14.229742 141.60423
3158843804.6952 -14.562619 138.79749
3182235174.5568 -14.807608 135.21828
3205799758.486 -14.903811 131.77901
3229538839.14 -15.082421 129.69432
3253453708.6744 -15.431542 126.73086
3277545668.8131 -15.727222 122.14059
3301816030.9196 -15.688443 117.62865
3326266116.0677 -15.670035 114.5101
3350897255.114 -15.803363 111.72571
3375710788.7703 -15.967562 107.66248
3400708067.6761 -15.923079 103.48761
3425890452.4728 -15.83673 100.48067
3451259313.8772 -15.892548 97.14563
3476816032.7562 -15.7591 93.168037
3502562000.2023 -15.50833 90.716385
3528498617.609 -15.430574 89.450912
3554627296.7473 -15.542049 87.170532
3580949459.8422 -15.470648 83.878929
3607466539.6504 -15.242265 82.081703
3634179979.5385 -15.206389 81.55101
3661091233.5608 -15.284775 80.129799
3688201766.5394 -15.268612 78.283005
3715513054.1432 -15.247229 78.438126
3743026582.9685 -15.507285 78.413956
3770743850.6201 -15.810094 76.66906
3798666365.7923 -15.900782 75.378677
3826795648.3517 -16.185711 76.167351
3855133229.4193 -16.742941 76.043709
3883680651.4543 -17.269342 74.220833
3912439468.3377 -17.667534 74.27224
3941411245.4573 -18.495777 75.602829
3970597559.7924 -19.655073 74.457611
4000000000 -21.525808 87.029869
