! S1P to S2P converted file from R:\Design\Slib\SL511\SL511_R1_2_U1_Att00.s1p
! Spar Program version 0.3
# HZ S MA R 50
 100000000     0.78485602 -124.45029000    0.61967816  145.54971000    0.61967816  145.54971000    0.78485602 -124.45029000
 100740504     0.78113509 -125.32287000    0.62436206  144.67713000    0.62436206  144.67713000    0.78113509 -125.32287000
 101486492     0.77705887 -126.21478000    0.62942792  143.78522000    0.62942792  143.78522000    0.77705887 -126.21478000
 102238003     0.77373614 -127.12038000    0.63350799  142.87962000    0.63350799  142.87962000    0.77373614 -127.12038000
 102995080     0.77110687 -128.00671000    0.63670573  141.99329000    0.63670573  141.99329000    0.77110687 -128.00671000
 103757763     0.76790221 -129.00703000    0.64056709  140.99297000    0.64056709  140.99297000    0.76790221 -129.00703000
 104526094     0.76398018 -129.88429000    0.64523971  140.11571000    0.64523971  140.11571000    0.76398018 -129.88429000
 105300114     0.76145528 -130.86624000    0.64821744  139.13376000    0.64821744  139.13376000    0.76145528 -130.86624000
 106079865     0.75696288 -131.80466000    0.65345787  138.19534000    0.65345787  138.19534000    0.75696288 -131.80466000
 106865391     0.75387403 -132.63783000    0.65701898  137.36217000    0.65701898  137.36217000    0.75387403 -132.63783000
 107656734     0.75009895 -133.61726000    0.66132562  136.38274000    0.66132562  136.38274000    0.75009895 -133.61726000
 108453936     0.74597127 -134.49849000    0.66597813  135.50151000    0.66597813  135.50151000    0.74597127 -134.49849000
 109257042     0.74180420 -135.43903000    0.67061652  134.56097000    0.67061652  134.56097000    0.74180420 -135.43903000
 110066095     0.73871313 -136.38806000    0.67401996  133.61194000    0.67401996  133.61194000    0.73871313 -136.38806000
 110881139     0.73521140 -137.28897000    0.67783788  132.71103000    0.67783788  132.71103000    0.73521140 -137.28897000
 111702219     0.73089420 -138.20511000    0.68249078  131.79489000    0.68249078  131.79489000    0.73089420 -138.20511000
 112529378     0.72715313 -139.15659000    0.68647530  130.84341000    0.68647530  130.84341000    0.72715313 -139.15659000
 113362663     0.72331941 -140.06723000    0.69051360  129.93277000    0.69051360  129.93277000    0.72331941 -140.06723000
 114202118     0.71954422 -141.03920000    0.69444662  128.96080000    0.69444662  128.96080000    0.71954422 -141.03920000
 115047790     0.71580565 -142.04788000    0.69829956  127.95212000    0.69829956  127.95212000    0.71580565 -142.04788000
 115899723     0.71157796 -142.98541000    0.70260715  127.01459000    0.70260715  127.01459000    0.71157796 -142.98541000
 116757966     0.70834869 -143.93213000    0.70586269  126.06787000    0.70586269  126.06787000    0.70834869 -143.93213000
 117622563     0.70426536 -144.90125000    0.70993683  125.09875000    0.70993683  125.09875000    0.70426536 -144.90125000
 118493563     0.70053752 -145.84454000    0.71361557  124.15546000    0.71361557  124.15546000    0.70053752 -145.84454000
 119371013     0.69701756 -146.86554000    0.71705406  123.13446000    0.71705406  123.13446000    0.69701756 -146.86554000
 120254960     0.69304622 -147.86328000    0.72089315  122.13672000    0.72089315  122.13672000    0.69304622 -147.86328000
 121145453     0.68850682 -148.79338000    0.72522987  121.20662000    0.72522987  121.20662000    0.68850682 -148.79338000
 122042540     0.68481891 -149.84926000    0.72871329  120.15074000    0.72871329  120.15074000    0.68481891 -149.84926000
 122946271     0.68128206 -150.81329000    0.73202101  119.18671000    0.73202101  119.18671000    0.68128206 -150.81329000
 123856693     0.67708600 -151.79732000    0.73590390  118.20268000    0.73590390  118.20268000    0.67708600 -151.79732000
 124773857     0.67334118 -152.81436000    0.73933190  117.18564000    0.73933190  117.18564000    0.67334118 -152.81436000
 125697812     0.66928520 -153.83162000    0.74300560  116.16838000    0.74300560  116.16838000    0.66928520 -153.83162000
 126628610     0.66544071 -154.88295000    0.74645071  115.11705000    0.74645071  115.11705000    0.66544071 -154.88295000
 127566300     0.66137780 -155.83356000    0.75005293  114.16644000    0.75005293  114.16644000    0.66137780 -155.83356000
 128510934     0.65776898 -156.85646000    0.75321973  113.14354000    0.75321973  113.14354000    0.65776898 -156.85646000
 129462563     0.65296372 -157.91978000    0.75738919  112.08022000    0.75738919  112.08022000    0.65296372 -157.91978000
 130421238     0.65033587 -158.88802000    0.75964680  111.11198000    0.75964680  111.11198000    0.65033587 -158.88802000
 131387013     0.64565245 -159.96179000    0.76363140  110.03821000    0.76363140  110.03821000    0.64565245 -159.96179000
 132359939     0.64174655 -161.00417000    0.76691679  108.99583000    0.76691679  108.99583000    0.64174655 -161.00417000
 133340070     0.63809379 -161.99896000    0.76995865  108.00104000    0.76995865  108.00104000    0.63809379 -161.99896000
 134327459     0.63395123 -163.02773000    0.77337302  106.97227000    0.77337302  106.97227000    0.63395123 -163.02773000
 135322159     0.63017615 -164.11731000    0.77645220  105.88269000    0.77645220  105.88269000    0.63017615 -164.11731000
 136324226     0.62615545 -165.15408000    0.77969824  104.84592000    0.77969824  104.84592000    0.62615545 -165.15408000
 137333712     0.62266984 -166.20236000    0.78248468  103.79764000    0.78248468  103.79764000    0.62266984 -166.20236000
 138350674     0.61864229 -167.24837000    0.78567278  102.75163000    0.78567278  102.75163000    0.61864229 -167.24837000
 139375167     0.61464589 -168.27483000    0.78880317  101.72517000    0.78880317  101.72517000    0.61464589 -168.27483000
 140407245     0.60997336 -169.42050000    0.79242192  100.57950000    0.79242192  100.57950000    0.60997336 -169.42050000
 141446967     0.60668759 -170.44090000    0.79494036   99.55910000    0.79494036   99.55910000    0.60668759 -170.44090000
 142494388     0.60320401 -171.53607000    0.79758694   98.46393000    0.79758694   98.46393000    0.60320401 -171.53607000
 143549564     0.59868228 -172.56802000    0.80098660   97.43198000    0.80098660   97.43198000    0.59868228 -172.56802000
 144612555     0.59511378 -173.64406000    0.80364146   96.35594000    0.80364146   96.35594000    0.59511378 -173.64406000
 145683417     0.59091755 -174.71254000    0.80673196   95.28746000    0.80673196   95.28746000    0.59091755 -174.71254000
 146762209     0.58745766 -175.84373000    0.80925490   94.15627000    0.80925490   94.15627000    0.58745766 -175.84373000
 147848989     0.58359792 -176.90186000    0.81204277   93.09814000    0.81204277   93.09814000    0.58359792 -176.90186000
 148943817     0.58024322 -177.95404000    0.81444325   92.04596000    0.81444325   92.04596000    0.58024322 -177.95404000
 150046752     0.57655694 -179.07072000    0.81705697   90.92928000    0.81705697   90.92928000    0.57655694 -179.07072000
 151157855     0.57243385  179.78703000    0.81995090   89.78703000    0.81995090   89.78703000    0.57243385  179.78703000
 152277185     0.56877611  178.68988000    0.82249239   88.68988000    0.82249239   88.68988000    0.56877611  178.68988000
 153404804     0.56472209  177.63409000    0.82528114   87.63409000    0.82528114   87.63409000    0.56472209  177.63409000
 154540773     0.56138646  176.47098000    0.82755377   86.47098000    0.82755377   86.47098000    0.56138646  176.47098000
 155685153     0.55802092  175.42207000    0.82982688   85.42207000    0.82982688   85.42207000    0.55802092  175.42207000
 156838008     0.55390649  174.33723000    0.83257888   84.33723000    0.83257888   84.33723000    0.55390649  174.33723000
 157999400     0.55060681  173.17455000    0.83476472   83.17455000    0.83476472   83.17455000    0.55060681  173.17455000
 159169393     0.54726619  172.05716000    0.83695861   82.05716000    0.83695861   82.05716000    0.54726619  172.05716000
 160348049     0.54367714  171.01245000    0.83929445   81.01245000    0.83929445   81.01245000    0.54367714  171.01245000
 161535433     0.53973217  169.88455000    0.84183679   79.88455000    0.84183679   79.88455000    0.53973217  169.88455000
 162731609     0.53656886  168.79733000    0.84385654   78.79733000    0.84385654   78.79733000    0.53656886  168.79733000
 163936643     0.53313437  167.62874000    0.84603058   77.62874000    0.84603058   77.62874000    0.53313437  167.62874000
 165150601     0.52915484  166.54677000    0.84852528   76.54677000    0.84852528   76.54677000    0.52915484  166.54677000
 166373548     0.52608378  165.44046000    0.85043275   75.44046000    0.85043275   75.44046000    0.52608378  165.44046000
 167605551     0.52248301  164.27284000    0.85264969   74.27284000    0.85264969   74.27284000    0.52248301  164.27284000
 168846677     0.51915573  163.17616000    0.85467967   73.17616000    0.85467967   73.17616000    0.51915573  163.17616000
 170096994     0.51637255  162.03961000    0.85636405   72.03961000    0.85636405   72.03961000    0.51637255  162.03961000
 171356569     0.51267060  160.90520000    0.85858538   70.90520000    0.85858538   70.90520000    0.51267060  160.90520000
 172625472     0.50927019  159.81120000    0.86060669   69.81120000    0.86060669   69.81120000    0.50927019  159.81120000
 173903771     0.50628688  158.67487000    0.86236512   68.67487000    0.86236512   68.67487000    0.50628688  158.67487000
 175191535     0.50342468  157.54399000    0.86403911   67.54399000    0.86403911   67.54399000    0.50342468  157.54399000
 176488836     0.50021635  156.44949000    0.86590046   66.44949000    0.86590046   66.44949000    0.50021635  156.44949000
 177795743     0.49705512  155.26109000    0.86771897   65.26109000    0.86771897   65.26109000    0.49705512  155.26109000
 179112328     0.49404390  154.16948000    0.86943696   64.16948000    0.86943696   64.16948000    0.49404390  154.16948000
 180438662     0.49138634  153.08983000    0.87094171   63.08983000    0.87094171   63.08983000    0.49138634  153.08983000
 181774818     0.48830627  151.95166000    0.87267232   61.95166000    0.87267232   61.95166000    0.48830627  151.95166000
 183120868     0.48535976  150.87982000    0.87431453   60.87982000    0.87431453   60.87982000    0.48535976  150.87982000
 184476886     0.48222015  149.78499000    0.87605007   59.78499000    0.87605007   59.78499000    0.48222015  149.78499000
 185842945     0.47922366  148.66167000    0.87769282   58.66167000    0.87769282   58.66167000    0.47922366  148.66167000
 187219120     0.47656003  147.53568000    0.87914194   57.53568000    0.87914194   57.53568000    0.47656003  147.53568000
 188605485     0.47389470  146.35652000    0.88058152   56.35652000    0.88058152   56.35652000    0.47389470  146.35652000
 190002116     0.47120967  145.27751000    0.88202123   55.27751000    0.88202123   55.27751000    0.47120967  145.27751000
 191409090     0.46844884  144.16121000    0.88349063   54.16121000    0.88349063   54.16121000    0.46844884  144.16121000
 192826482     0.46628758  143.06367000    0.88463320   53.06367000    0.88463320   53.06367000    0.46628758  143.06367000
 194254370     0.46341521  141.95430000    0.88614127   51.95430000    0.88614127   51.95430000    0.46341521  141.95430000
 195692832     0.46037030  140.82033000    0.88772698   50.82033000    0.88772698   50.82033000    0.46037030  140.82033000
 197141946     0.45809153  139.81842000    0.88890503   49.81842000    0.88890503   49.81842000    0.45809153  139.81842000
 198601790     0.45538577  138.69196000    0.89029422   48.69196000    0.89029422   48.69196000    0.45538577  138.69196000
 200072444     0.45264116  137.57526000    0.89169276   47.57526000    0.89169276   47.57526000    0.45264116  137.57526000
 201553989     0.44998447  136.45258000    0.89303638   46.45258000    0.89303638   46.45258000    0.44998447  136.45258000
 203046505     0.44787929  135.35727000    0.89409403   45.35727000    0.89409403   45.35727000    0.44787929  135.35727000
 204550073     0.44515496  134.37601000    0.89545355   44.37601000    0.89545355   44.37601000    0.44515496  134.37601000
 206064775     0.44340544  133.18349000    0.89632116   43.18349000    0.89632116   43.18349000    0.44340544  133.18349000
 207590693     0.44068677  132.15359000    0.89766094   42.15359000    0.89766094   42.15359000    0.44068677  132.15359000
 209127911     0.43782551  131.10036000    0.89905997   41.10036000    0.89905997   41.10036000    0.43782551  131.10036000
 210676511     0.43606398  129.99037000    0.89991567   39.99037000    0.89991567   39.99037000    0.43606398  129.99037000
 212236580     0.43352615  128.85675000    0.90114099   38.85675000    0.90114099   38.85675000    0.43352615  128.85675000
 213808200     0.43118354  127.80623000    0.90226424   37.80623000    0.90226424   37.80623000    0.43118354  127.80623000
 215391459     0.42907903  126.71282000    0.90326695   36.71282000    0.90326695   36.71282000    0.42907903  126.71282000
 216986442     0.42710795  125.63165000    0.90420064   35.63165000    0.90420064   35.63165000    0.42710795  125.63165000
 218593235     0.42449137  124.56148000    0.90543198   34.56148000    0.90543198   34.56148000    0.42449137  124.56148000
 220211927     0.42251770  123.47617000    0.90635467   33.47617000    0.90635467   33.47617000    0.42251770  123.47617000
 221842606     0.42006318  122.47028000    0.90749486   32.47028000    0.90749486   32.47028000    0.42006318  122.47028000
 223485360     0.41866721  121.36853000    0.90813973   31.36853000    0.90813973   31.36853000    0.41866721  121.36853000
 225140278     0.41605246  120.28295000    0.90934061   30.28295000    0.90934061   30.28295000    0.41605246  120.28295000
 226807451     0.41416072  119.20772000    0.91020377   29.20772000    0.91020377   29.20772000    0.41416072  119.20772000
 228486970     0.41201989  118.20185000    0.91117485   28.20185000    0.91117485   28.20185000    0.41201989  118.20185000
 230178925     0.40962659  117.17963000    0.91225329   27.17963000    0.91225329   27.17963000    0.40962659  117.17963000
 231883410     0.40816895  115.99407000    0.91290641   25.99407000    0.91290641   25.99407000    0.40816895  115.99407000
 233600516     0.40660294  114.99605000    0.91360498   24.99605000    0.91360498   24.99605000    0.40660294  114.99605000
 235330338     0.40421054  113.94769000    0.91466597   23.94769000    0.91466597   23.94769000    0.40421054  113.94769000
 237072969     0.40265407  112.88742000    0.91535223   22.88742000    0.91535223   22.88742000    0.40265407  112.88742000
 238828504     0.40013076  111.77689000    0.91645806   21.77689000    0.91645806   21.77689000    0.40013076  111.77689000
 240597039     0.39867181  110.70768000    0.91709366   20.70768000    0.91709366   20.70768000    0.39867181  110.70768000
 242378670     0.39686272  109.68459000    0.91787798   19.68459000    0.91787798   19.68459000    0.39686272  109.68459000
 244173494     0.39524598  108.57952000    0.91857532   18.57952000    0.91857532   18.57952000    0.39524598  108.57952000
 245981609     0.39366683  107.51347000    0.91925319   17.51347000    0.91925319   17.51347000    0.39366683  107.51347000
 247803113     0.39189036  106.45391000    0.92001193   16.45391000    0.92001193   16.45391000    0.39189036  106.45391000
 249638105     0.39041402  105.38859000    0.92063939   15.38859000    0.92063939   15.38859000    0.39041402  105.38859000
 251486686     0.38838397  104.37253000    0.92149764   14.37253000    0.92149764   14.37253000    0.38838397  104.37253000
 253348955     0.38705013  103.33147000    0.92205867   13.33147000    0.92205867   13.33147000    0.38705013  103.33147000
 255225015     0.38520776  102.23431000    0.92282988   12.23431000    0.92282988   12.23431000    0.38520776  102.23431000
 257114967     0.38423360  101.21938000    0.92323591   11.21938000    0.92323591   11.21938000    0.38423360  101.21938000
 259018914     0.38191368  100.16123000    0.92419800   10.16123000    0.92419800   10.16123000    0.38191368  100.16123000
 260936960     0.38054076   99.20373500    0.92476415    9.20373500    0.92476415    9.20373500    0.38054076   99.20373500
 262869209     0.37949440   98.12952400    0.92519403    8.12952400    0.92519403    8.12952400    0.37949440   98.12952400
 264815766     0.37767717   97.10659800    0.92593734    7.10659800    0.92593734    7.10659800    0.37767717   97.10659800
 266776738     0.37660473   96.05143700    0.92637405    6.05143700    0.92637405    6.05143700    0.37660473   96.05143700
 268752231     0.37531119   95.08262600    0.92689887    5.08262600    0.92689887    5.08262600    0.37531119   95.08262600
 270742352     0.37307376   94.06594100    0.92780169    4.06594100    0.92780169    4.06594100    0.37307376   94.06594100
 272747211     0.37198972   93.03781900    0.92823685    3.03781900    0.92823685    3.03781900    0.37198972   93.03781900
 274766915     0.37075582   91.97635700    0.92873038    1.97635700    0.92873038    1.97635700    0.37075582   91.97635700
 276801575     0.36955434   90.98104900    0.92920912    0.98104900    0.92920912    0.98104900    0.36955434   90.98104900
 278851303     0.36824442   90.06541400    0.92972902    0.06541400    0.92972902    0.06541400    0.36824442   90.06541400
 280916208     0.36727041   89.03144800    0.93011421   -0.96855200    0.93011421   -0.96855200    0.36727041   89.03144800
 282996404     0.36540077   87.99186700    0.93085030   -2.00813300    0.93085030   -2.00813300    0.36540077   87.99186700
 285092004     0.36437723   87.05430600    0.93125143   -2.94569400    0.93125143   -2.94569400    0.36437723   87.05430600
 287203123     0.36301929   86.07122000    0.93178162   -3.92878000    0.93178162   -3.92878000    0.36301929   86.07122000
 289329874     0.36222078   85.09103400    0.93209233   -4.90896600    0.93209233   -4.90896600    0.36222078   85.09103400
 291472373     0.36045868   84.09362800    0.93277518   -5.90637200    0.93277518   -5.90637200    0.36045868   84.09362800
 293630739     0.35955165   83.07732400    0.93312518   -6.92267600    0.93312518   -6.92267600    0.35955165   83.07732400
 295805086     0.35839128   82.09297200    0.93357147   -7.90702800    0.93357147   -7.90702800    0.35839128   82.09297200
 297995535     0.35705827   81.18093100    0.93408211   -8.81906900    0.93408211   -8.81906900    0.35705827   81.18093100
 300202205     0.35603531   80.12424500    0.93447250   -9.87575500    0.93447250   -9.87575500    0.35603531   80.12424500
 302425215     0.35498410   79.13873300    0.93487234  -10.86126700    0.93487234  -10.86126700    0.35498410   79.13873300
 304664686     0.35413257   78.27546700    0.93519523  -11.72453300    0.93519523  -11.72453300    0.35413257   78.27546700
 306920741     0.35283434   77.21124300    0.93568581  -12.78875700    0.93568581  -12.78875700    0.35283434   77.21124300
 309193501     0.35170804   76.28396600    0.93610974  -13.71603400    0.93610974  -13.71603400    0.35170804   76.28396600
 311483092     0.35046896   75.30714400    0.93657435  -14.69285600    0.93657435  -14.69285600    0.35046896   75.30714400
 313789637     0.34935753   74.37110100    0.93698950  -15.62889900    0.93698950  -15.62889900    0.34935753   74.37110100
 316113263     0.34788990   73.31895400    0.93753540  -16.68104600    0.93753540  -16.68104600    0.34788990   73.31895400
 318454095     0.34711152   72.48414600    0.93782386  -17.51585400    0.93782386  -17.51585400    0.34711152   72.48414600
 320812260     0.34584006   71.56607100    0.93829348  -18.43392900    0.93829348  -18.43392900    0.34584006   71.56607100
 323187889     0.34474082   70.54896500    0.93869791  -19.45103500    0.93869791  -19.45103500    0.34474082   70.54896500
