! S1P to S2P converted file from C:\Users\hsaether\OneDrive\Source\repos\Spar\Data\Sma-3p9-att0.0.s1p
! Spar Program version 0.3
# HZ S MA R 50
   1000000     0.96207051  -74.49004400    0.27280091 -164.49004400    0.27280091 -164.49004400    0.96207051  -74.49004400
   1010570     0.96149921  -75.17913100    0.27480768 -165.17913100    0.27480768 -165.17913100    0.96149921  -75.17913100
   1021252     0.96082960  -75.86695900    0.27713983 -165.86695900    0.27713983 -165.86695900    0.96082960  -75.86695900
   1032047     0.96006422  -76.59262800    0.27977972 -166.59262800    0.27977972 -166.59262800    0.96006422  -76.59262800
   1042956     0.95942439  -77.18307500    0.28196603 -167.18307500    0.28196603 -167.18307500    0.95942439  -77.18307500
   1053981     0.95783191  -77.86689800    0.28732914 -167.86689800    0.28732914 -167.86689800    0.95783191  -77.86689800
   1065121     0.95780185  -78.55211600    0.28742932 -168.55211600    0.28742932 -168.55211600    0.95780185  -78.55211600
   1076380     0.95721599  -79.21774300    0.28937441 -169.21774300    0.28937441 -169.21774300    0.95721599  -79.21774300
   1087758     0.95561075  -79.88526200    0.29463212 -169.88526200    0.29463212 -169.88526200    0.95561075  -79.88526200
   1099255     0.95591269  -80.62134600    0.29365104 -170.62134600    0.29365104 -170.62134600    0.95591269  -80.62134600
   1110875     0.95472580  -81.35009800    0.29748723 -171.35009800    0.29748723 -171.35009800    0.95472580  -81.35009800
   1122617     0.95399142  -82.09429900    0.29983391 -172.09429900    0.29983391 -172.09429900    0.95399142  -82.09429900
   1134484     0.95466302  -82.65941600    0.29768863 -172.65941600    0.29768863 -172.65941600    0.95466302  -82.65941600
   1146475     0.95340656  -83.39859800    0.30168847 -173.39859800    0.30168847 -173.39859800    0.95340656  -83.39859800
   1158594     0.95329827  -84.15607500    0.30203048 -174.15607500    0.30203048 -174.15607500    0.95329827  -84.15607500
   1170840     0.95226061  -84.87441300    0.30528631 -174.87441300    0.30528631 -174.87441300    0.95226061  -84.87441300
   1183217     0.95112958  -85.57105300    0.30879205 -175.57105300    0.30879205 -175.57105300    0.95112958  -85.57105300
   1195724     0.95123952  -86.39114400    0.30845320 -176.39114400    0.30845320 -176.39114400    0.95123952  -86.39114400
   1208363     0.94923005  -87.06456000    0.31458275 -177.06456000    0.31458275 -177.06456000    0.94923005  -87.06456000
   1221135     0.94917658  -87.79925500    0.31474405 -177.79925500    0.31474405 -177.79925500    0.94917658  -87.79925500
   1234043     0.94709094  -88.51406900    0.32096535 -178.51406900    0.32096535 -178.51406900    0.94709094  -88.51406900
   1247087     0.94759314  -89.27600100    0.31947963 -179.27600100    0.31947963 -179.27600100    0.94759314  -89.27600100
   1260269     0.94566291  -90.05764000    0.32514866  179.94236000    0.32514866  179.94236000    0.94566291  -90.05764000
   1273591     0.94620636  -90.76863900    0.32356380  179.23136100    0.32356380  179.23136100    0.94620636  -90.76863900
   1287053     0.94456759  -91.49394200    0.32831704  178.50605800    0.32831704  178.50605800    0.94456759  -91.49394200
   1300657     0.94369438  -92.25405100    0.33081857  177.74594900    0.33081857  177.74594900    0.94369438  -92.25405100
   1314406     0.94328194  -93.03917700    0.33199274  176.96082300    0.33199274  176.96082300    0.94328194  -93.03917700
   1328299     0.94303361  -93.78683500    0.33269748  176.21316500    0.33269748  176.21316500    0.94303361  -93.78683500
   1342340     0.94236716  -94.56974000    0.33458054  175.43026000    0.33458054  175.43026000    0.94236716  -94.56974000
   1356529     0.94215506  -95.33944700    0.33517734  174.66055300    0.33517734  174.66055300    0.94215506  -95.33944700
   1370867     0.94000995  -96.04975100    0.34114702  173.95024900    0.34114702  173.95024900    0.94000995  -96.04975100
   1385358     0.93906187  -96.83326000    0.34374817  173.16674000    0.34374817  173.16674000    0.93906187  -96.83326000
   1400001     0.93818731  -97.63187400    0.34612796  172.36812600    0.34612796  172.36812600    0.93818731  -97.63187400
   1414800     0.93759838  -98.43338000    0.34772010  171.56662000    0.34772010  171.56662000    0.93759838  -98.43338000
   1429755     0.93548412  -99.17746000    0.35336873  170.82254000    0.35336873  170.82254000    0.93548412  -99.17746000
   1444868     0.93472869 -100.00882000    0.35536217  169.99118000    0.35536217  169.99118000    0.93472869 -100.00882000
   1460140     0.93428436 -100.70935000    0.35652874  169.29065000    0.35652874  169.29065000    0.93428436 -100.70935000
   1475574     0.93340025 -101.54111000    0.35883698  168.45889000    0.35883698  168.45889000    0.93340025 -101.54111000
   1491171     0.93154945 -102.34078000    0.36361465  167.65922000    0.36361465  167.65922000    0.93154945 -102.34078000
   1506934     0.93245865 -103.19380000    0.36127673  166.80620000    0.36127673  166.80620000    0.93245865 -103.19380000
   1522862     0.93169024 -104.01438000    0.36325376  165.98562000    0.36325376  165.98562000    0.93169024 -104.01438000
   1538959     0.92975091 -104.74752000    0.36818915  165.25248000    0.36818915  165.25248000    0.92975091 -104.74752000
   1555227     0.92843925 -105.54118000    0.37148425  164.45882000    0.37148425  164.45882000    0.92843925 -105.54118000
   1571666     0.92853430 -106.43794000    0.37124663  163.56206000    0.37124663  163.56206000    0.92853430 -106.43794000
   1588279     0.92662924 -107.26907000    0.37597640  162.73093000    0.37597640  162.73093000    0.92662924 -107.26907000
   1605067     0.92526417 -108.05412000    0.37932335  161.94588000    0.37932335  161.94588000    0.92526417 -108.05412000
   1622033     0.92541136 -108.79382000    0.37896414  161.20618000    0.37896414  161.20618000    0.92541136 -108.79382000
   1639178     0.92336941 -109.66075000    0.38391266  160.33925000    0.38391266  160.33925000    0.92336941 -109.66075000
   1656505     0.92278594 -110.51701000    0.38531301  159.48299000    0.38531301  159.48299000    0.92278594 -110.51701000
   1674015     0.92192168 -111.32802000    0.38737632  158.67198000    0.38737632  158.67198000    0.92192168 -111.32802000
   1691709     0.91984497 -112.28456000    0.39228209  157.71544000    0.39228209  157.71544000    0.91984497 -112.28456000
   1709591     0.91934244 -113.11037000    0.39345835  156.88963000    0.39345835  156.88963000    0.91934244 -113.11037000
   1727662     0.91877844 -113.87215000    0.39477358  156.12785000    0.39477358  156.12785000    0.91877844 -113.87215000
   1745924     0.91677747 -114.74769000    0.39939839  155.25231000    0.39939839  155.25231000    0.91677747 -114.74769000
   1764379     0.91529180 -115.55906000    0.40279142  154.44094000    0.40279142  154.44094000    0.91529180 -115.55906000
   1783029     0.91515403 -116.54793000    0.40310434  153.45207000    0.40310434  153.45207000    0.91515403 -116.54793000
   1801876     0.91389262 -117.31917000    0.40595601  152.68083000    0.40595601  152.68083000    0.91389262 -117.31917000
   1820922     0.91329056 -118.18614000    0.40730867  151.81386000    0.40730867  151.81386000    0.91329056 -118.18614000
   1840170     0.91038190 -118.99039000    0.41376902  151.00961000    0.41376902  151.00961000    0.91038190 -118.99039000
   1859621     0.91044570 -119.92944000    0.41362862  150.07056000    0.41362862  150.07056000    0.91044570 -119.92944000
   1879278     0.90882324 -120.84924000    0.41718139  149.15076000    0.41718139  149.15076000    0.90882324 -120.84924000
   1899142     0.90712913 -121.68288000    0.42085240  148.31712000    0.42085240  148.31712000    0.90712913 -121.68288000
   1919217     0.90615420 -122.53269000    0.42294748  147.46731000    0.42294748  147.46731000    0.90615420 -122.53269000
   1939503     0.90515208 -123.37233000    0.42508788  146.62767000    0.42508788  146.62767000    0.90515208 -123.37233000
   1960004     0.90474000 -124.30764000    0.42596424  145.69236000    0.42596424  145.69236000    0.90474000 -124.30764000
   1980722     0.90206836 -125.15969000    0.43159319  144.84031000    0.43159319  144.84031000    0.90206836 -125.15969000
   2001659     0.90039284 -126.03550000    0.43507784  143.96450000    0.43507784  143.96450000    0.90039284 -126.03550000
   2022817     0.89901559 -126.98170000    0.43791663  143.01830000    0.43791663  143.01830000    0.89901559 -126.98170000
   2044198     0.89760810 -127.83359000    0.44079439  142.16641000    0.44079439  142.16641000    0.89760810 -127.83359000
   2065806     0.89641709 -128.74269000    0.44321146  141.25731000    0.44321146  141.25731000    0.89641709 -128.74269000
   2087642     0.89437888 -129.64288000    0.44731020  140.35712000    0.44731020  140.35712000    0.89437888 -129.64288000
   2109709     0.89352827 -130.62369000    0.44900694  139.37631000    0.44900694  139.37631000    0.89352827 -130.62369000
   2132009     0.89219039 -131.54785000    0.45165950  138.45215000    0.45165950  138.45215000    0.89219039 -131.54785000
   2154545     0.89065635 -132.48506000    0.45467710  137.51494000    0.45467710  137.51494000    0.89065635 -132.48506000
   2177319     0.88818659 -133.38695000    0.45948296  136.61305000    0.45948296  136.61305000    0.88818659 -133.38695000
   2200334     0.88831337 -134.31683000    0.45923779  135.68317000    0.45923779  135.68317000    0.88831337 -134.31683000
   2223592     0.88482948 -135.20769000    0.46591500  134.79231000    0.46591500  134.79231000    0.88482948 -135.20769000
   2247096     0.88399868 -136.17461000    0.46748940  133.82539000    0.46748940  133.82539000    0.88399868 -136.17461000
   2270849     0.88223302 -137.11392000    0.47081301  132.88608000    0.47081301  132.88608000    0.88223302 -137.11392000
   2294852     0.87971097 -138.05493000    0.47550878  131.94507000    0.47550878  131.94507000    0.87971097 -138.05493000
   2319109     0.87887288 -138.98099000    0.47705603  131.01901000    0.47705603  131.01901000    0.87887288 -138.98099000
   2343623     0.87659258 -139.94713000    0.48123326  130.05287000    0.48123326  130.05287000    0.87659258 -139.94713000
   2368396     0.87326942 -140.96465000    0.48723765  129.03535000    0.48723765  129.03535000    0.87326942 -140.96465000
   2393430     0.87221486 -141.93791000    0.48912293  128.06209000    0.48912293  128.06209000    0.87221486 -141.93791000
   2418730     0.86952472 -142.90268000    0.49388942  127.09732000    0.49388942  127.09732000    0.86952472 -142.90268000
   2444296     0.86828447 -143.91075000    0.49606660  126.08925000    0.49606660  126.08925000    0.86828447 -143.91075000
   2470133     0.86543867 -144.88300000    0.50101488  125.11700000    0.50101488  125.11700000    0.86543867 -144.88300000
   2496243     0.86347662 -145.88130000    0.50438886  124.11870000    0.50438886  124.11870000    0.86347662 -145.88130000
   2522629     0.86063934 -146.82922000    0.50921501  123.17078000    0.50921501  123.17078000    0.86063934 -146.82922000
   2549294     0.85883415 -147.82933000    0.51225375  122.17067000    0.51225375  122.17067000    0.85883415 -147.82933000
   2576241     0.85638806 -148.89079000    0.51633273  121.10921000    0.51633273  121.10921000    0.85638806 -148.89079000
   2603472     0.85295502 -149.84904000    0.52198442  120.15096000    0.52198442  120.15096000    0.85295502 -149.84904000
   2630991     0.85077754 -150.90533000    0.52552600  119.09467000    0.52552600  119.09467000    0.85077754 -150.90533000
   2658802     0.84868138 -151.93199000    0.52890444  118.06801000    0.52890444  118.06801000    0.84868138 -151.93199000
   2686906     0.84540195 -152.98589000    0.53413064  117.01411000    0.53413064  117.01411000    0.84540195 -152.98589000
   2715307     0.84200619 -154.02841000    0.53946786  115.97159000    0.53946786  115.97159000    0.84200619 -154.02841000
   2744009     0.83888542 -155.05011000    0.54430805  114.94989000    0.54430805  114.94989000    0.83888542 -155.05011000
   2773014     0.83603928 -156.13965000    0.54866960  113.86035000    0.54866960  113.86035000    0.83603928 -156.13965000
   2802325     0.83393660 -157.16177000    0.55186026  112.83823000    0.55186026  112.83823000    0.83393660 -157.16177000
   2831947     0.82993616 -158.26216000    0.55785838  111.73784000    0.55785838  111.73784000    0.82993616 -158.26216000
   2861881     0.82642312 -159.34256000    0.56304957  110.65744000    0.56304957  110.65744000    0.82642312 -159.34256000
   2892132     0.82250006 -160.43613000    0.56876502  109.56387000    0.56876502  109.56387000    0.82250006 -160.43613000
   2922702     0.81959292 -161.50935000    0.57294628  108.49065000    0.57294628  108.49065000    0.81959292 -161.50935000
   2953596     0.81482774 -162.65564000    0.57970316  107.34436000    0.57970316  107.34436000    0.81482774 -162.65564000
   2984816     0.81144099 -163.79500000    0.58443436  106.20500000    0.58443436  106.20500000    0.81144099 -163.79500000
   3016367     0.80654541 -164.90866000    0.59117214  105.09134000    0.59117214  105.09134000    0.80654541 -164.90866000
   3048251     0.80206628 -166.10170000    0.59723503  103.89830000    0.59723503  103.89830000    0.80206628 -166.10170000
   3080471     0.79845489 -167.22696000    0.60205464  102.77304000    0.60205464  102.77304000    0.79845489 -167.22696000
   3113033     0.79344481 -168.42656000    0.60864220  101.57344000    0.60864220  101.57344000    0.79344481 -168.42656000
   3145938     0.78845890 -169.58241000    0.61508744  100.41759000    0.61508744  100.41759000    0.78845890 -169.58241000
   3179192     0.78347976 -170.77574000    0.62141731   99.22426000    0.62141731   99.22426000    0.78347976 -170.77574000
   3212797     0.77754293 -171.97083000    0.62882986   98.02917000    0.62882986   98.02917000    0.77754293 -171.97083000
   3246757     0.77252270 -173.17371000    0.63498715   96.82629000    0.63498715   96.82629000    0.77252270 -173.17371000
   3281076     0.76728839 -174.45178000    0.64130222   95.54822000    0.64130222   95.54822000    0.76728839 -174.45178000
   3315758     0.76079175 -175.68730000    0.64899608   94.31270000    0.64899608   94.31270000    0.76079175 -175.68730000
   3350806     0.75565679 -176.87019000    0.65496780   93.12981000    0.65496780   93.12981000    0.75565679 -176.87019000
   3386225     0.74826827 -178.15540000    0.66339626   91.84460000    0.66339626   91.84460000    0.74826827 -178.15540000
   3422018     0.74174451 -179.51077000    0.67068255   90.48923000    0.67068255   90.48923000    0.74174451 -179.51077000
   3458190     0.73491374  179.26599000    0.67816060   89.26599000    0.67816060   89.26599000    0.73491374  179.26599000
   3494744     0.72755426  177.96384000    0.68605014   87.96384000    0.68605014   87.96384000    0.72755426  177.96384000
   3531684     0.71982946  176.62561000    0.69415096   86.62561000    0.69415096   86.62561000    0.71982946  176.62561000
   3569015     0.71253281  175.29837000    0.70163880   85.29837000    0.70163880   85.29837000    0.71253281  175.29837000
   3606741     0.70434245  173.91121000    0.70986035   83.91121000    0.70986035   83.91121000    0.70434245  173.91121000
   3644865     0.69541542  172.59062000    0.71860796   82.59062000    0.71860796   82.59062000    0.69541542  172.59062000
   3683392     0.68660656  171.21227000    0.72702918   81.21227000    0.72702918   81.21227000    0.68660656  171.21227000
   3722326     0.67771027  169.81073000    0.73532904   79.81073000    0.73532904   79.81073000    0.67771027  169.81073000
   3761672     0.66818300  168.41144000    0.74399696   78.41144000    0.74399696   78.41144000    0.66818300  168.41144000
   3801434     0.65796979  166.99693000    0.75304432   76.99693000    0.75304432   76.99693000    0.65796979  166.99693000
   3841616     0.64794062  165.56020000    0.76169085   75.56020000    0.76169085   75.56020000    0.64794062  165.56020000
   3882223     0.63762456  164.18097000    0.77034727   74.18097000    0.77034727   74.18097000    0.63762456  164.18097000
   3923259     0.62600072  162.74628000    0.77982248   72.74628000    0.77982248   72.74628000    0.62600072  162.74628000
   3964729     0.61517236  161.24960000    0.78839265   71.24960000    0.78839265   71.24960000    0.61517236  161.24960000
   4006638     0.60265780  159.76050000    0.79799974   69.76050000    0.79799974   69.76050000    0.60265780  159.76050000
   4048989     0.59111569  158.28496000    0.80658679   68.28496000    0.80658679   68.28496000    0.59111569  158.28496000
   4091788     0.57851571  156.79585000    0.81567124   66.79585000    0.81567124   66.79585000    0.57851571  156.79585000
   4135039     0.56554924  155.28618000    0.82471453   65.28618000    0.82471453   65.28618000    0.56554924  155.28618000
   4178747     0.55187097  153.81570000    0.83392951   63.81570000    0.83392951   63.81570000    0.55187097  153.81570000
   4222918     0.53750091  152.32689000    0.84326317   62.32689000    0.84326317   62.32689000    0.53750091  152.32689000
   4267555     0.52370807  150.83426000    0.85189779   60.83426000    0.85189779   60.83426000    0.52370807  150.83426000
   4312665     0.50968097  149.29106000    0.86036347   59.29106000    0.86036347   59.29106000    0.50968097  149.29106000
   4358251     0.49398153  147.80313000    0.86947240   57.80313000    0.86947240   57.80313000    0.49398153  147.80313000
   4404318     0.47874761  146.31689000    0.87795258   56.31689000    0.87795258   56.31689000    0.47874761  146.31689000
   4450873     0.46273949  144.77539000    0.88649431   54.77539000    0.88649431   54.77539000    0.46273949  144.77539000
   4497920     0.44600661  143.27472000    0.89502967   53.27472000    0.89502967   53.27472000    0.44600661  143.27472000
   4545464     0.42969390  141.83113000    0.90297461   51.83113000    0.90297461   51.83113000    0.42969390  141.83113000
   4593511     0.41302826  140.34947000    0.91071821   50.34947000    0.91071821   50.34947000    0.41302826  140.34947000
   4642066     0.39565204  138.96341000    0.91840049   48.96341000    0.91840049   48.96341000    0.39565204  138.96341000
   4691134     0.37855352  137.48798000    0.92557940   47.48798000    0.92557940   47.48798000    0.37855352  137.48798000
   4740720     0.36080772  136.16711000    0.93264023   46.16711000    0.93264023   46.16711000    0.36080772  136.16711000
   4790831     0.34248327  134.84685000    0.93952393   44.84685000    0.93952393   44.84685000    0.34248327  134.84685000
   4841471     0.32453908  133.58609000    0.94587229   43.58609000    0.94587229   43.58609000    0.32453908  133.58609000
   4892647     0.30603666  132.36040000    0.95201973   42.36040000    0.95201973   42.36040000    0.30603666  132.36040000
   4944363     0.28808885  131.25862000    0.95760368   41.25862000    0.95760368   41.25862000    0.28808885  131.25862000
   4996627     0.26954976  130.27573000    0.96298646   40.27573000    0.96298646   40.27573000    0.26954976  130.27573000
   5049442     0.25150672  129.35585000    0.96785555   39.35585000    0.96785555   39.35585000    0.25150672  129.35585000
   5102816     0.23285456  128.67787000    0.97251157   38.67787000    0.97251157   38.67787000    0.23285456  128.67787000
   5156754     0.21416498  128.09549000    0.97679750   38.09549000    0.97679750   38.09549000    0.21416498  128.09549000
   5211263     0.19609820  127.78447000    0.98058426   37.78447000    0.98058426   37.78447000    0.19609820  127.78447000
   5266347     0.17746291  127.74210000    0.98412749   37.74210000    0.98412749   37.74210000    0.17746291  127.74210000
   5322014     0.16005180  128.18741000    0.98710862   38.18741000    0.98710862   38.18741000    0.16005180  128.18741000
