!Keysight Technologies,P5024A,MY58100101,A.14.10.13
!Date: Tuesday, October 27, 2020 17:20:16
!Correction: S11(C  2-Port  ) 
!S1P File: Measurement: :Log Frequency Sweep
# Hz S  dB   R 50
1000000 -0.33586195 -74.490044
1010570.2655223 -0.34102133 -75.179131
1021252.2615579 -0.34707254 -75.866959
1032047.1691279 -0.35399431 -76.592628
1042956.1817371 -0.35978493 -77.183075
1053980.5055062 -0.37421399 -77.866898
1065121.3593048 -0.37448657 -78.552116
1076379.9748862 -0.37980112 -79.217743
1087757.5970237 -0.39437944 -79.885262
1099255.4836481 -0.39163548 -80.621346
1110874.9059872 -0.40242684 -81.350098
1122617.1487056 -0.40911064 -82.094299
1134483.5100473 -0.402998 -82.659416
1146475.3019792 -0.41443729 -83.398598
1158593.850336 -0.4154239 -84.156075
1170840.4949666 -0.4248836 -84.874413
1183216.5898827 -0.43520626 -85.571053
1195723.5034082 -0.43420231 -86.391144
1208362.6183305 -0.45257041 -87.06456
1221135.3320535 -0.4530597 -87.799255
1234043.056752 -0.47216639 -88.514069
1247087.2195279 -0.46756181 -89.276001
1260269.2625678 -0.48527285 -90.05764
1273590.6433028 -0.48028278 -90.768639
1287052.8345693 -0.49533924 -91.493942
1300657.324772 -0.50337267 -92.254051
1314405.6180484 -0.5071696 -93.039177
1328299.2344352 -0.50945657 -93.786835
1342339.7100363 -0.51559716 -94.56974
1356528.5971926 -0.51755232 -95.339447
1370867.4646536 -0.53735095 -96.049751
1385357.8977509 -0.54611588 -96.83326
1400001.4985736 -0.55420887 -97.631874
1414799.8861452 -0.559663 -98.43338
1429754.6966027 -0.57927161 -99.17746
1444867.5833776 -0.58628851 -100.00882
1460140.2173785 -0.59041846 -100.70935
1475574.2871761 -0.59864175 -101.54111
1491171.4991895 -0.61588168 -102.34078
1506933.5778752 -0.6074084 -103.1938
1522862.2659179 -0.61456907 -104.01438
1538959.3244226 -0.63266778 -104.74752
1555226.5331098 -0.64493012 -105.54118
1571665.6905122 -0.644041 -106.43794
1588278.6141733 -0.66188002 -107.26907
1605067.1408485 -0.67468506 -108.05412
1622033.1267085 -0.67330348 -108.79382
1639178.4475438 -0.69249034 -109.66075
1656504.9989729 -0.69798064 -110.51701
1674014.6966511 -0.70611942 -111.32802
1691709.476483 -0.72570729 -112.28456
1709591.2948361 -0.73045379 -113.11037
1727662.1287572 -0.73578411 -113.87215
1745923.976191 -0.7547214 -114.74769
1764378.8562012 -0.7688086 -115.55906
1783028.8091932 -0.77011609 -116.54793
1801875.8971404 -0.78209662 -117.31917
1820922.2038115 -0.78782064 -118.18614
1840169.8350013 -0.81552774 -118.99039
1859620.9187634 -0.81491905 -119.92944
1879277.6056457 -0.83041149 -120.84924
1899142.0689275 -0.84661776 -121.68288
1919216.5048607 -0.85595787 -122.53269
1939503.132912 -0.86556888 -123.37233
1960004.1960083 -0.86952418 -124.30764
1980721.960785 -0.89521104 -125.15969
2001658.7178364 -0.91135931 -126.0355
2022816.781969 -0.92465556 -126.9817
2044198.4924575 -0.93826473 -127.83359
2065806.2133031 -0.94979745 -128.74269
2087642.3334954 -0.96956927 -129.64288
2109709.2672762 -0.97783405 -130.62369
2132009.4544062 -0.99084914 -131.54785
2154545.3604354 -1.0057966 -132.48506
2177319.4769752 -1.0299158 -133.38695
2200334.3219737 -1.028676 -134.31683
2223592.4399949 -1.0628083 -135.20769
2247096.4024991 -1.0709677 -136.17461
2270848.8081279 -1.0883338 -137.11392
2294852.2829909 -1.1131998 -138.05493
2319109.4809566 -1.1214787 -138.98099
2343623.0839457 -1.1440442 -139.94713
2368395.8022273 -1.177035 -140.96465
2393430.3747188 -1.1875304 -141.93791
2418729.5692888 -1.2143613 -142.90268
2444296.183063 -1.2267593 -143.91075
2470133.0427332 -1.2552741 -144.883
2496243.0048704 -1.2749883 -145.8813
2522628.9562401 -1.3035761 -146.82922
2549293.8141219 -1.3218139 -147.82933
2576240.5266317 -1.3465879 -148.89079
2603472.0730476 -1.3814774 -149.84904
2630991.4641397 -1.4036797 -150.90533
2658801.7425026 -1.4251065 -151.93199
2686905.9828922 -1.4587351 -152.98589
2715307.2925649 -1.4936943 -154.02841
2744008.8116221 -1.5259471 -155.05011
2773013.7133565 -1.5554664 -156.13965
2802325.2046038 -1.5773393 -157.16177
2831946.5260964 -1.6191063 -158.26216
2861880.9528223 -1.6559508 -159.34256
2892131.794387 -1.6972812 -160.43613
2922702.3953793 -1.728036 -161.50935
2953596.1357412 -1.7786839 -162.65564
2984816.4311417 -1.8148612 -163.795
3016366.7333543 -1.8674235 -164.90866
3048250.5306387 -1.9157948 -166.1017
3080471.3481261 -1.9549923 -167.22696
3113032.7482098 -2.0096655 -168.42656
3145938.3309381 -2.0644188 -169.58241
3179191.734413 -2.1194444 -170.77574
3212796.6351922 -2.1855125 -171.97083
3246756.7486954 -2.241775 -173.17371
3281075.8296156 -2.3008275 -174.45178
3315757.6723336 -2.3746841 -175.6873
3350806.1113379 -2.4335082 -176.87019
3386225.0216486 -2.5188534 -178.1554
3422018.3192458 -2.5949132 -179.51077
3458189.9615025 -2.6752727 179.26599
3494743.9476223 -2.7626922 177.96384
3531684.3190813 -2.8554077 176.62561
3569015.1600751 -2.9439027 175.29837
3606740.5979703 -3.0443227 173.91121
3644864.8037611 -3.1551137 172.59062
3683391.9925298 -3.265841 171.21227
3722326.4239137 -3.3791187 169.81073
3761672.4025753 -3.5020916 168.41144
3801434.2786786 -3.6358809 166.99693
3841616.44837 -3.7692959 165.5602
3882223.3542642 -3.9086993 164.18097
3923259.4859358 -4.0685034 162.74628
3964729.3804152 -4.2200637 161.2496
4006637.6226904 -4.3985844 159.7605
4048988.8462141 -4.5665503 158.28496
4091787.7334155 -4.7536969 156.79585
4135039.0162188 -4.9505916 155.28618
4178747.4765655 -5.163249 153.8157
4222917.9469436 -5.392416 152.32689
4267555.3109218 -5.6182146 150.83426
4312664.5036895 -5.8540316 149.29106
4358250.5126023 -6.1257858 147.80313
4404318.3777334 -6.3978677 146.31689
4450873.1924309 -6.6932688 144.77539
4497920.1038812 -7.0131741 143.27472
4545464.3136775 -7.3368163 141.83113
4593511.0783954 -7.6804047 140.34947
4642065.7101738 -8.0537319 138.96341
4691133.5773025 -8.4374542 137.48798
4740720.1048154 -8.8544836 136.16711
4790830.7750904 -9.3072128 134.84685
4841471.1284557 -9.7746601 133.58609
4892646.7638022 -10.284531 132.3604
4944363.3392026 -10.809471 131.25862
4996626.5725369 -11.387221 130.27573
5049442.2421246 -11.989008 129.35585
5102816.1873636 -12.658305 128.67787
5156754.3093757 -13.385031 128.09549
5211262.5716593 -14.150528 127.78447
5266347.0007483 -15.017848 127.7421
5322013.686879 -15.914789 128.18741
5378268.7846629 -16.933908 128.90854
5435118.5137673 -18.00326 130.52211
5492569.1596032 -19.194326 133.05875
5550627.07402 -20.545948 137.11365
5609298.6760079 -21.946428 142.94745
5668590.4524074 -23.281698 151.33974
5728508.9586267 -24.525299 163.76572
5789060.8193665 -25.18989 179.01418
5850252.7293522 -24.96871 -165.59895
5912091.4540742 -24.154638 -151.39761
5974583.8305361 -22.91427 -141.27274
6037736.7680104 -21.72328 -133.52142
6101557.2488023 -20.490711 -129.02074
6166052.3290219 -19.401585 -125.53516
6231229.1393643 -18.387836 -123.62341
6297094.8858979 -17.489578 -122.12901
6363656.8508612 -16.69441 -121.16619
6430922.3934679 -15.95431 -120.75999
6498898.9507204 -15.289311 -120.57903
6567594.0382323 -14.662081 -120.69999
6637015.2510594 -14.107014 -121
6707170.2645389 -13.575865 -121.30312
6778066.8351386 -13.122407 -121.76475
6849712.8013142 -12.669627 -122.29791
6922116.0843759 -12.266196 -122.98772
6995284.6893642 -11.919318 -123.65987
7069226.7059351 -11.538321 -124.42838
7143950.3092545 -11.224131 -125.21983
7219463.7609017 -10.914193 -125.98528
7295775.4097833 -10.640473 -126.74137
7372893.6930561 -10.367678 -127.49529
7450827.1370597 -10.111347 -128.38669
7529584.3582595 -9.8955469 -129.17691
7609174.0641991 -9.6546831 -130.03571
7689605.0544634 -9.4532051 -130.90582
7770886.221651 -9.2640266 -131.75403
7853026.5523578 -9.0711727 -132.69127
7936035.1281702 -8.8881903 -133.47069
8019921.1266696 -8.7292185 -134.31293
8104693.8224467 -8.5712767 -135.20676
8190362.5881272 -8.4198465 -135.97488
8276936.8954079 -8.2766209 -136.7827
8364426.3161041 -8.1514187 -137.60817
8452840.5232073 -8.0142536 -138.47223
8542189.2919556 -7.9046211 -139.27063
8632482.5009137 -7.7809491 -140.10077
8723730.1330653 -7.6670318 -140.88766
8815942.276917 -7.5787849 -141.65044
8909129.1276137 -7.4788485 -142.45534
9003300.9880654 -7.3833704 -143.28822
9098468.2700868 -7.2880454 -144.05853
9194641.4955482 -7.2141967 -144.75879
9291831.2975388 -7.1350527 -145.61845
9390048.4215426 -7.0522771 -146.38989
9489303.7266259 -6.9916925 -147.052
9589608.1866385 -6.9227209 -147.81105
9690972.8914265 -6.8596334 -148.51727
9793409.0480586 -6.7945633 -149.26282
9896927.9820655 -6.7263813 -149.99078
10001541.138691 -6.6810055 -150.74194
10107260.08416 -6.6331153 -151.46858
10214096.506953 -6.593399 -152.11356
10322062.219102 -6.5360813 -152.85739
10431169.157496 -6.5108113 -153.57146
10541429.385199 -6.4553795 -154.24504
10652855.092786 -6.4251599 -154.90538
10765458.599688 -6.3901491 -155.59401
10879252.355556 -6.3586097 -156.31416
10994248.941639 -6.3342223 -156.92075
11110461.072171 -6.2975783 -157.56863
11227901.595779 -6.2703538 -158.26906
11346583.496905 -6.2548041 -158.87637
11466519.897239 -6.2339034 -159.53929
11587724.05717 -6.2124548 -160.20697
11710209.377254 -6.1987753 -160.77074
11833989.399694 -6.1781492 -161.45848
11959077.809837 -6.1671119 -162.06931
12085488.437689 -6.1562939 -162.74245
12213235.259443 -6.1432853 -163.3671
12342332.399022 -6.1399083 -163.97777
12472794.129645 -6.131279 -164.57895
12604634.8754 -6.1320825 -165.16443
12737869.212846 -6.1261296 -165.77177
12872511.872614 -6.1422005 -166.36143
13008577.741047 -6.1337781 -167.00188
13146081.861838 -6.1422992 -167.55795
13285039.437696 -6.1422024 -168.10304
13425465.832027 -6.155766 -168.7141
13567376.570633 -6.1577339 -169.24533
13710787.343426 -6.1751504 -169.85211
13855714.006166 -6.1896596 -170.39424
14002172.582213 -6.2047853 -170.96815
14150179.264297 -6.2208853 -171.53629
14299750.416309 -6.2485666 -172.09929
14450902.575113 -6.2729664 -172.62643
14603652.452369 -6.2820826 -173.20712
14758016.936387 -6.3206277 -173.75401
14914013.093988 -6.3481965 -174.26964
15071658.172395 -6.3701591 -174.8367
15230969.601139 -6.4101372 -175.37033
15391964.993985 -6.4478202 -175.86194
15554662.150882 -6.4748201 -176.35757
15719079.059928 -6.5112109 -176.90211
15885233.899358 -6.5555806 -177.37476
16053145.039558 -6.602067 -177.88771
16222831.045095 -6.6530099 -178.43674
16394310.676766 -6.702848 -178.90553
16567602.893675 -6.759182 -179.3134
16742726.85533 -6.8076792 -179.91682
16919701.923759 -6.8600659 179.69632
17098547.665652 -6.9273891 179.21327
17279283.854524 -6.9931846 178.76308
17461930.472902 -7.0538378 178.3055
17646507.714533 -7.1261821 177.92851
17833035.986618 -7.1925416 177.50211
18021535.912066 -7.2734413 177.14352
18212028.331777 -7.3532786 176.71254
18404534.306944 -7.4252806 176.33354
18599075.121384 -7.5147972 176.03738
18795672.283887 -7.6060495 175.69986
18994347.530598 -7.7131648 175.36824
19195122.82742 -7.8031464 175.02489
19398020.37244 -7.9104819 174.7435
19603062.598384 -8.0121679 174.55727
19810272.1751 -8.1323748 174.28352
20019672.012061 -8.2467356 174.09329
20231285.260899 -8.3766632 173.98645
20445135.317964 -8.4903736 173.77158
20661245.826916 -8.6290007 173.77028
20879640.681328 -8.7477636 173.75427
21100344.027341 -8.8956423 173.74139
21323380.266323 -9.0455732 173.80806
21548774.057572 -9.185586 173.92714
21776550.321041 -9.3440199 174.13852
22006734.240095 -9.4970579 174.2966
22239351.264292 -9.6517296 174.6834
22474427.112201 -9.823966 175.04816
22711987.774239 -9.9769535 175.55388
22952059.515553 -10.153065 176.05873
23194668.878917 -10.318165 176.7861
23439842.68767 -10.488 177.5874
23687608.04868 -10.646702 178.45442
23937992.355344 -10.816526 179.63565
24191023.290612 -10.965036 -179.26862
24446728.830051 -11.120275 -178.03154
24705137.244937 -11.251614 -176.57939
24966277.105382 -11.355403 -175.00905
25230177.28349 -11.468374 -173.27769
25496866.956552 -11.553538 -171.42162
25766375.610271 -11.612719 -169.63538
26038733.04202 -11.628527 -167.45985
26313969.364139 -11.634997 -165.29279
26592115.007265 -11.616278 -163.22385
26873200.723692 -11.55624 -160.96454
27157257.590777 -11.469146 -158.85612
27444317.01437 -11.324454 -156.86362
27734410.732291 -11.170943 -154.76711
28027570.817837 -10.964051 -152.88795
28323829.683328 -10.755103 -150.97075
28623220.08369 -10.511247 -149.40726
28925775.120079 -10.24557 -147.8819
29231528.243538 -9.9635487 -146.62558
29540513.258696 -9.6795254 -145.47128
29852764.327506 -9.3586578 -144.41835
30168315.973024 -9.0650482 -143.52226
30487203.08322 -8.7484322 -143.00615
30809460.914844 -8.4504652 -142.3569
31135125.097314 -8.1220655 -142.08594
31464231.636663 -7.8102636 -141.87021
31796816.919519 -7.513803 -141.81693
32132917.717124 -7.2067089 -141.86681
32472571.189401 -6.9060402 -142.06743
32815814.889067 -6.6168876 -142.30605
33162686.765776 -6.3453355 -142.68372
33513225.170324 -6.0694699 -143.13214
33867468.858885 -5.8063726 -143.72096
34225456.997293 -5.5538387 -144.31467
34587229.165377 -5.3040204 -144.95456
34952825.361337 -5.0816936 -145.67627
35322286.006163 -4.851089 -146.49603
35695651.948104 -4.6348786 -147.39159
36072964.467188 -4.4319015 -148.24808
36454265.279785 -4.2285619 -149.18126
36839596.543214 -4.0458803 -150.10225
37229000.860411 -3.8616126 -151.10519
37622521.284637 -3.6858802 -152.08829
38020201.324236 -3.5226767 -153.12553
38422084.947446 -3.36643 -154.15431
38828216.587262 -3.2195244 -155.21611
39238641.146349 -3.0795362 -156.29001
39653404.002001 -2.939929 -157.34184
40072551.011167 -2.8168416 -158.38849
40496128.515513 -2.7007451 -159.5208
40924183.346548 -2.5854356 -160.63728
41356762.830806 -2.473033 -161.77327
41793914.795072 -2.3735733 -162.82135
42235687.571674 -2.2799349 -163.96533
42682130.003826 -2.1841691 -165.02213
43133291.451025 -2.1018999 -166.13539
43589221.794515 -2.022373 -167.22983
44049971.442795 -1.9386919 -168.33388
44515591.337197 -1.8618708 -169.39572
44986132.957515 -1.7903997 -170.48618
45461648.327699 -1.7310395 -171.54683
45942190.021606 -1.66352 -172.61229
46427811.168812 -1.6046873 -173.69511
46918565.460488 -1.5526663 -174.79585
47414507.155332 -1.5026753 -175.79579
47915691.085575 -1.4473639 -176.89847
48422172.663036 -1.3991131 -177.86736
48934007.885253 -1.3578204 -178.97678
49451253.341672 -1.3168361 -179.99542
49973966.219906 -1.2757233 178.97958
50502204.312055 -1.2398043 177.98711
51036026.021097 -1.1987461 176.95297
51575490.367345 -1.1733831 175.99046
52120656.994973 -1.140186 174.98004
52671586.178609 -1.1099899 173.98598
53228338.829999 -1.0822542 172.94536
53790976.504745 -1.0550385 172.00827
54359561.409107 -1.0326012 170.965
54934156.406879 -0.99533236 170.03183
55514825.026345 -0.98979205 169.08739
56101631.4673 -0.96169037 168.07657
56694640.608146 -0.944839 167.13669
57293918.013067 -0.92558253 166.15877
57899529.939281 -0.9058845 165.20544
58511543.344358 -0.89237785 164.32291
59130025.893629 -0.8683331 163.3499
59755045.967668 -0.85486186 162.37006
60386672.669846 -0.85263795 161.47301
61024975.833977 -0.83358371 160.47353
61670026.032036 -0.81562519 159.54823
62321894.581964 -0.80717933 158.59422
62980653.555551 -0.7940985 157.65323
63646375.786404 -0.79407954 156.70285
64319134.878001 -0.7749247 155.8407
64999005.211828 -0.76615143 154.80812
65686061.955605 -0.75395209 153.91034
66380381.071593 -0.75557214 152.94592
67082039.324994 -0.74242353 152.03189
67791114.292439 -0.7388317 151.11809
68507684.370565 -0.73121375 150.1678
69231828.784683 -0.72470397 149.2243
69963627.597534 -0.71639168 148.27037
70703161.718146 -0.70813185 147.33118
71450512.910776 -0.7043941 146.41763
72205763.80395 -0.70046371 145.38109
72968997.899601 -0.69157386 144.49477
73740299.582299 -0.69412953 143.55963
74519754.128581 -0.69034618 142.57675
75307447.71638 -0.68168622 141.60802
76103467.434551 -0.67691892 140.71425
76907901.292505 -0.67750221 139.73482
77720838.229933 -0.67939788 138.69798
78542368.126642 -0.67765957 137.76549
79372581.812494 -0.67246383 136.81981
80211571.077446 -0.66622466 135.82399
81059428.681699 -0.66018486 134.87503
81916248.365953 -0.66690189 133.91605
82782124.861775 -0.6552186 132.85851
83657153.902068 -0.66057122 131.89893
84541432.231656 -0.66448432 130.88033
85435057.617983 -0.65412396 129.88148
86338128.861922 -0.65924233 128.83162
87250745.808694 -0.6664232 127.79308
88173009.358915 -0.66477698 126.82191
89105021.479742 -0.66337919 125.78226
90046885.216157 -0.6621176 124.75153
90998704.702351 -0.66369224 123.69875
91960585.173244 -0.66482884 122.63634
92932632.976115 -0.66562629 121.55862
93914955.582363 -0.66635776 120.45624
94907661.599387 -0.67402565 119.38639
95910860.782597 -0.67646575 118.28522
96924664.047545 -0.67529017 117.21017
97949183.482191 -0.67315537 116.09351
98984532.359294 -0.67203355 114.95083
100030825.14894 -0.68273789 113.83101
101088177.53118 -0.68688905 112.65905
102156706.40885 -0.68422276 111.48617
103236529.92048 -0.68933338 110.37488
104327767.45335 -0.69128156 109.14437
105430539.65668 -0.69310004 107.95454
106544968.45502 -0.70144296 106.76769
107671177.06166 -0.6957438 105.54313
108809289.9923 -0.70010543 104.33519
109959433.07882 -0.70722848 102.98356
111121733.48315 -0.71775651 101.8075
112296319.71137 -0.71385276 100.48601
113483321.6279 -0.71619844 99.188782
114682870.46986 -0.72577429 97.852798
115895098.86159 -0.72275847 96.605927
117120140.8293 -0.72738022 95.172676
118358131.81587 -0.72786653 93.798286
119609208.6959 -0.72762537 92.466118
120873509.79073 -0.73545259 91.093109
122151174.88383 -0.72762507 89.706062
123442345.23622 -0.72745246 88.236053
124747163.60207 -0.73725593 86.760071
126065774.2445 -0.73180377 85.291489
127398322.95155 -0.73637015 83.860588
128744957.05224 -0.73839015 82.320236
130105825.43295 -0.74291283 80.782181
131481078.55378 -0.74003512 79.263069
132870868.46526 -0.74253535 77.704239
134275348.82512 -0.74056435 76.08149
135694674.9153 -0.73220479 74.621727
137129003.65913 -0.74640685 72.966911
138578493.63862 -0.73374778 71.289925
140043305.11206 -0.73602331 69.695427
141523600.03172 -0.74124742 67.999458
143019542.06174 -0.7378428 66.279045
144531296.59621 -0.73732096 64.571693
146059030.77752 -0.73540598 62.806576
147602913.51478 -0.73441356 61.140533
149163115.5025 -0.73224312 59.342468
150739809.2395 -0.74703461 57.496033
152333169.04795 -0.73829472 55.709644
153943371.09264 -0.7321521 53.83139
155570593.4005 -0.73581874 52.023937
157215015.88021 -0.72843838 50.12318
158876820.34216 -0.7363407 48.164684
160556190.51852 -0.73568535 46.164223
162253312.08356 -0.74114609 44.268681
163968372.67416 -0.7333647 42.254272
165701561.91059 -0.7416392 40.246735
167453071.41745 -0.74343836 38.171173
169223094.84487 -0.74692702 36.128513
171011827.88989 -0.74333268 33.979698
172819468.31815 -0.74242693 31.866613
174646215.9857 -0.74487168 29.747011
176492272.86114 -0.74919528 27.561901
178357843.04792 -0.75785571 25.348427
180243132.80693 -0.74728489 23.02457
182148350.57928 -0.74860013 20.711412
184073707.00936 -0.75374055 18.413427
186019414.96813 -0.75416183 16.105616
187985689.57665 -0.75329131 13.741789
189972748.22988 -0.75784278 11.254845
191980810.62068 -0.74949825 8.8005228
194010098.76413 -0.75686276 6.3483629
196060837.02208 -0.74724799 3.8150022
198133252.12794 -0.75275224 1.3018906
200227573.21174 -0.74595344 -1.2793376
202344031.82548 -0.74328816 -3.8612068
204482861.96874 -0.74078846 -6.4571733
206644300.11451 -0.73734796 -9.0812483
208828585.2354 -0.73217726 -11.77402
211035958.82999 -0.72785771 -14.455225
213266664.94959 -0.72190094 -17.165524
215520950.22517 -0.71519083 -19.896118
217799063.89468 -0.71177363 -22.63236
220101257.83056 -0.70419043 -25.415281
222427786.56763 -0.70087409 -28.200039
224778907.3312 -0.69113559 -30.998571
227154880.06551 -0.68786281 -33.827595
229555967.4625 -0.68186373 -36.628841
231982434.99081 -0.67641252 -39.510933
234434550.92518 -0.67481446 -42.375755
236912586.37607 -0.66688049 -45.248569
239416815.31965 -0.66497791 -48.10902
241947514.6281 -0.66356617 -51.031975
244504964.10018 -0.66188604 -53.950974
247089446.49225 -0.65763038 -56.904869
249701247.54944 -0.65760869 -59.831257
